  can1  132   [8]  E8 03 E8 03 E8 03 E8 03
  can1  142   [1]  00
  can1  132   [8]  E8 03 E8 03 E8 03 E8 03
  can1  101   [6]  00 00 01 02 00 DC
  can1  142   [1]  00
  can1  302   [8]  87 F7 FF FF EB F7 FF FF
  can1  301   [8]  FD A4 05 00 3B FF FF FF
  can1  132   [8]  E8 03 E8 03 E8 03 E8 03
  can1  142   [1]  00
  can1  107   [5]  01 00 00 00 00
  can1  303   [4]  B6 00 67 00
  can1  103   [5]  01 00 00 04 00
  can1  132   [8]  E8 03 E8 03 E8 03 E8 03
  can1  133   [6]  00 00 1F 47 B5 0D
  can1  142   [1]  00
  can1  132   [8]  E8 03 E8 03 E8 03 E8 03
  can1  142   [1]  00
  can1  132   [8]  E8 03 E8 03 E8 03 E8 03
  can1  142   [1]  00
  can1  132   [8]  E8 03 E8 03 E8 03 E8 03
  can1  104   [5]  01 00 00 00 00
  can1  142   [1]  00
  can1  102   [5]  01 00 00 00 00
  can1  132   [8]  00 00 00 00 00 00 00 00
  can1  152   [8]  04 00 00 00 00 00 01 00
  can1  106   [5]  01 00 00 00 00
  can1  132   [8]  E8 03 E8 03 E8 03 E8 03
  can1  105   [5]  01 00 00 00 00
  can1  142   [1]  00
  can1  162   [6]  0A FA 58 FD 65 40
  can1  100   [5]  01 00 00 00 01
  can1  110   [4]  02 00 00 00
  can1  130   [1]  01
  can1  132   [8]  E8 03 E8 03 E8 03 E8 03
  can1  142   [1]  00
  can1  132   [8]  E8 03 E8 03 E8 03 E8 03
  can1  142   [1]  00
  can1  132   [8]  E8 03 E8 03 E8 03 E8 03
  can1  142   [1]  00
  can1  132   [8]  E8 03 E8 03 E8 03 E8 03
  can1  101   [6]  00 00 01 02 00 DC
  can1  142   [1]  00
  can1  302   [8]  87 F7 FF FF EA F7 FF FF
  can1  301   [8]  FD A4 05 00 C5 00 00 00
  can1  132   [8]  E8 03 E8 03 E8 03 E8 03
  can1  142   [1]  00
  can1  107   [5]  01 00 00 00 00
  can1  303   [4]  B6 00 55 00
  can1  103   [5]  01 00 00 04 00
  can1  132   [8]  E8 03 E8 03 E8 03 E8 03
  can1  133   [6]  00 00 18 4B F0 0B
  can1  142   [1]  00
  can1  132   [8]  E8 03 E8 03 E8 03 E8 03
  can1  142   [1]  00
  can1  132   [8]  E8 03 E8 03 E8 03 E8 03
  can1  142   [1]  00
  can1  132   [8]  E8 03 E8 03 E8 03 E8 03
  can1  104   [5]  01 00 00 00 00
  can1  142   [1]  00
  can1  102   [5]  01 00 00 00 00
  can1  132   [8]  00 00 00 00 00 00 00 00
  can1  132   [8]  E8 03 E8 03 E8 03 E8 03
  can1  106   [5]  01 00 00 00 00
  can1  152   [8]  FC FF 00 00 00 00 01 00
  can1  105   [5]  01 00 00 00 00
  can1  142   [1]  00
  can1  132   [8]  E8 03 E8 03 E8 03 E8 03
  can1  100   [5]  01 00 00 00 01
  can1  110   [4]  02 00 00 00
  can1  130   [1]  01
  can1  162   [6]  52 FA 48 FD 65 40
  can1  132   [8]  E8 03 E8 03 E8 03 E8 03
  can1  142   [1]  00
  can1  142   [1]  00
  can1  132   [8]  E8 03 E8 03 E8 03 E8 03
  can1  142   [1]  00
  can1  132   [8]  E8 03 E8 03 E8 03 E8 03
  can1  101   [6]  00 00 01 02 00 DC
  can1  142   [1]  00
  can1  302   [8]  87 F7 FF FF EA F7 FF FF
  can1  132   [8]  E8 03 E8 03 E8 03 E8 03
  can1  301   [8]  FD A4 05 00 C4 00 00 00
  can1  142   [1]  00
  can1  107   [5]  01 00 00 00 00
  can1  132   [8]  E8 03 E8 03 E8 03 E8 03
  can1  103   [5]  01 00 00 06 00
  can1  133   [6]  00 00 14 39 27 0F
  can1  303   [4]  B6 00 62 00
  can1  142   [1]  00
  can1  132   [8]  E8 03 E8 03 E8 03 E8 03
  can1  142   [1]  00
  can1  132   [8]  E8 03 E8 03 E8 03 E8 03
  can1  142   [1]  00
  can1  132   [8]  E8 03 E8 03 E8 03 E8 03
  can1  104   [5]  01 00 00 00 00
  can1  132   [8]  E8 03 E8 03 E8 03 E8 03
  can1  142   [1]  00
  can1  102   [5]  01 00 00 00 00
  can1  132   [8]  00 00 00 00 00 00 00 00
  can1  152   [8]  02 00 00 00 00 00 00 00
  can1  106   [5]  01 00 00 00 00
  can1  105   [5]  01 00 00 00 00
  can1  132   [8]  E8 03 E8 03 E8 03 E8 03
  can1  142   [1]  00
  can1  100   [5]  01 00 00 00 01
  can1  110   [4]  02 00 00 00
  can1  130   [1]  01
  can1  132   [8]  E8 03 E8 03 E8 03 E8 03
  can1  162   [6]  05 FA 30 FD 75 40
  can1  142   [1]  00
  can1  142   [1]  00
  can1  132   [8]  E8 03 E8 03 E8 03 E8 03
  can1  142   [1]  00
  can1  132   [8]  E8 03 E8 03 E8 03 E8 03
  can1  101   [6]  00 00 01 02 00 DC
  can1  142   [1]  00
  can1  132   [8]  E8 03 E8 03 E8 03 E8 03
  can1  302   [8]  87 F7 FF FF EA F7 FF FF
  can1  301   [8]  74 A3 05 00 89 01 00 00
  can1  142   [1]  00
  can1  303   [4]  B6 00 6A 00
  can1  107   [5]  01 00 00 00 00
  can1  103   [5]  01 00 00 00 00
  can1  132   [8]  E8 03 E8 03 E8 03 E8 03
  can1  133   [6]  00 00 13 5D EB 0B
  can1  132   [8]  E8 03 E8 03 E8 03 E8 03
  can1  142   [1]  00
  can1  142   [1]  00
  can1  132   [8]  E8 03 E8 03 E8 03 E8 03
  can1  132   [8]  E8 03 E8 03 E8 03 E8 03
  can1  142   [1]  00
  can1  132   [8]  E8 03 E8 03 E8 03 E8 03
  can1  104   [5]  01 00 00 00 00
  can1  142   [1]  00
  can1  102   [5]  01 00 00 00 00
  can1  132   [8]  00 00 00 00 00 00 00 00
  can1  132   [8]  E8 03 E8 03 E8 03 E8 03
  can1  106   [5]  01 00 00 00 00
  can1  152   [8]  02 00 00 00 00 00 00 00
  can1  105   [5]  01 00 00 00 00
  can1  132   [8]  E8 03 E8 03 E8 03 E8 03
  can1  100   [5]  01 00 00 00 01
  can1  110   [4]  02 00 00 00
  can1  130   [1]  01
  can1  142   [1]  00
  can1  132   [8]  E8 03 E8 03 E8 03 E8 03
  can1  142   [1]  00
  can1  162   [6]  1B FA 08 FD 7C 40
  can1  142   [1]  00
  can1  132   [8]  E8 03 E8 03 E8 03 E8 03
  can1  142   [1]  00
  can1  132   [8]  E8 03 E8 03 E8 03 E8 03
  can1  101   [6]  00 00 01 02 00 DC
  can1  142   [1]  00
  can1  302   [8]  87 F7 FF FF EA F7 FF FF
  can1  132   [8]  E8 03 E8 03 E8 03 E8 03
  can1  301   [8]  AF A2 05 00 8A 01 00 00
  can1  142   [1]  00
  can1  107   [5]  01 00 00 00 00
  can1  303   [4]  B6 00 70 00
  can1  103   [5]  01 00 00 00 00
  can1  132   [8]  E8 03 E8 03 E8 03 E8 03
  can1  133   [6]  00 00 1C 38 CD 0E
  can1  142   [1]  00
  can1  132   [8]  E8 03 E8 03 E8 03 E8 03
  can1  142   [1]  00
  can1  132   [8]  E8 03 E8 03 E8 03 E8 03
  can1  142   [1]  00
  can1  132   [8]  E8 03 E8 03 E8 03 E8 03
  can1  104   [5]  01 00 00 00 00
  can1  132   [8]  E8 03 E8 03 E8 03 E8 03
  can1  142   [1]  00
  can1  102   [5]  01 00 00 00 00
  can1  132   [8]  00 00 00 00 00 00 00 00
  can1  152   [8]  F2 FF 00 00 00 00 00 00
  can1  106   [5]  01 00 00 00 00
  can1  105   [5]  01 00 00 00 00
  can1  132   [8]  E8 03 E8 03 E8 03 E8 03
  can1  142   [1]  00
  can1  100   [5]  01 00 00 00 01
  can1  110   [4]  02 00 00 00
  can1  130   [1]  01
  can1  132   [8]  E8 03 E8 03 E8 03 E8 03
  can1  162   [6]  63 FA 60 FD 9F 40
  can1  142   [1]  00
  can1  142   [1]  00
  can1  132   [8]  E8 03 E8 03 E8 03 E8 03
  can1  142   [1]  00
  can1  132   [8]  E8 03 E8 03 E8 03 E8 03
  can1  101   [6]  00 00 01 02 00 DC
  can1  132   [8]  E8 03 E8 03 E8 03 E8 03
  can1  142   [1]  00
  can1  302   [8]  87 F7 FF FF EA F7 FF FF
  can1  301   [8]  38 A4 05 00 89 01 00 00
  can1  132   [8]  E8 03 E8 03 E8 03 E8 03
  can1  107   [5]  01 00 00 00 00
  can1  103   [5]  01 00 00 00 00
  can1  133   [6]  00 00 1A 50 E3 0C
  can1  142   [1]  00
  can1  132   [8]  E8 03 E8 03 E8 03 E8 03
  can1  142   [1]  00
  can1  303   [4]  B6 00 6C 00
  can1  132   [8]  E8 03 E8 03 E8 03 E8 03
  can1  142   [1]  00
  can1  132   [8]  E8 03 E8 03 E8 03 E8 03
  can1  142   [1]  00
  can1  132   [8]  E8 03 E8 03 E8 03 E8 03
  can1  104   [5]  01 00 00 00 00
  can1  142   [1]  00
  can1  102   [5]  01 00 00 00 00
  can1  132   [8]  00 00 00 00 00 00 00 00
  can1  132   [8]  E8 03 E8 03 E8 03 E8 03
  can1  106   [5]  01 00 00 00 00
  can1  152   [8]  FE FF 00 00 00 00 03 00
  can1  105   [5]  01 00 00 00 00
  can1  132   [8]  E8 03 E8 03 E8 03 E8 03
  can1  100   [5]  01 00 00 00 01
  can1  110   [4]  02 00 00 00
  can1  130   [1]  01
  can1  142   [1]  00
  can1  132   [8]  E8 03 E8 03 E8 03 E8 03
  can1  142   [1]  00
  can1  535   [4]  37 0A 85 00
  can1  142   [1]  00
  can1  162   [6]  A9 FA 64 FD 34 40
  can1  132   [8]  E8 03 E8 03 E8 03 E8 03
  can1  142   [1]  00
  can1  132   [8]  E8 03 E8 03 E8 03 E8 03
  can1  101   [6]  00 00 01 02 00 DC
  can1  142   [1]  00
  can1  132   [8]  E8 03 E8 03 E8 03 E8 03
  can1  302   [8]  79 F8 FF FF EC F7 FF FF
  can1  301   [8]  FD A4 05 00 76 FE FF FF
  can1  142   [1]  00
  can1  303   [4]  B6 00 5C 00
  can1  107   [5]  01 00 00 00 00
  can1  103   [5]  01 00 00 04 00
  can1  132   [8]  E8 03 E8 03 E8 03 E8 03
  can1  133   [6]  00 00 19 4E 59 0C
  can1  142   [1]  00
  can1  132   [8]  E8 03 E8 03 E8 03 E8 03
  can1  142   [1]  00
  can1  132   [8]  E8 03 E8 03 E8 03 E8 03
  can1  132   [8]  E8 03 E8 03 E8 03 E8 03
  can1  142   [1]  00
  can1  132   [8]  E8 03 E8 03 E8 03 E8 03
  can1  104   [5]  01 00 00 00 00
  can1  142   [1]  00
  can1  234   [6]  00 00 EF 00 F0 00
  can1  102   [5]  01 00 00 00 00
  can1  254   [2]  00 00
  can1  106   [5]  01 00 00 00 00
  can1  105   [5]  01 00 00 00 00
  can1  100   [5]  01 00 00 00 01
  can1  110   [4]  02 00 00 00
  can1  130   [1]  01
  can1  132   [8]  00 00 00 00 00 00 00 00
  can1  132   [8]  E8 03 E8 03 E8 03 E8 03
  can1  142   [1]  00
  can1  132   [8]  E8 03 E8 03 E8 03 E8 03
  can1  142   [1]  00
  can1  132   [8]  E8 03 E8 03 E8 03 E8 03
  can1  132   [8]  E8 03 E8 03 E8 03 E8 03
  can1  142   [1]  00
  can1  236   [2]  00 00
  can1  142   [1]  00
  can1  534   [4]  E2 5B D0 5C
  can1  152   [8]  01 00 00 00 00 00 00 00
  can1  132   [8]  E8 03 E8 03 E8 03 E8 03
  can1  142   [1]  00
  can1  544   [6]  13 00 21 00 05 00
  can1  162   [6]  E1 F9 58 FD 76 40
  can1  132   [8]  E8 03 E8 03 E8 03 E8 03
  can1  107   [5]  01 00 00 00 00
  can1  103   [5]  01 00 00 04 00
  can1  133   [6]  00 00 1A 50 B5 0C
  can1  142   [1]  00
  can1  237   [2]  00 00
  can1  132   [8]  E8 03 E8 03 E8 03 E8 03
  can1  142   [1]  00
  can1  132   [8]  E8 03 E8 03 E8 03 E8 03
  can1  142   [1]  00
  can1  142   [1]  00
  can1  132   [8]  E8 03 E8 03 E8 03 E8 03
  can1  104   [5]  01 00 00 00 00
  can1  132   [8]  E8 03 E8 03 E8 03 E8 03
  can1  101   [6]  00 00 01 02 00 DC
  can1  142   [1]  00
  can1  302   [8]  87 F7 FF FF EA F7 FF FF
  can1  301   [8]  FD A4 05 00 00 00 00 00
  can1  106   [5]  01 00 00 00 00
  can1  132   [8]  E8 03 E8 03 E8 03 E8 03
  can1  105   [5]  01 00 00 00 00
  can1  142   [1]  00
  can1  380   [6]  02 00 16 0F 14 0F
  can1  100   [5]  01 00 00 00 01
  can1  102   [5]  01 00 00 00 00
  can1  110   [4]  02 00 00 00
  can1  130   [1]  01
  can1  132   [8]  E8 03 E8 03 E8 03 E8 03
  can1  132   [8]  E8 03 E8 03 E8 03 E8 03
  can1  142   [1]  00
  can1  310   [8]  03 0F 16 0F 01 02 00 02
  can1  142   [1]  00
  can1  132   [8]  00 00 00 00 00 00 00 00
  can1  132   [8]  E8 03 E8 03 E8 03 E8 03
  can1  142   [1]  00
  can1  382   [6]  01 02 08 0F 03 0F
  can1  152   [8]  F4 FF 00 00 00 00 00 00
  can1  132   [8]  E8 03 E8 03 E8 03 E8 03
  can1  142   [1]  00
  can1  384   [6]  04 00 08 0F 06 0F
  can1  162   [6]  2E FA 74 FD 65 40
  can1  303   [4]  B6 00 67 00
  can1  132   [8]  E8 03 E8 03 E8 03 E8 03
  can1  107   [5]  01 00 00 00 00
  can1  142   [1]  00
  can1  103   [5]  01 00 00 00 00
  can1  133   [6]  00 00 1A 50 E1 0C
  can1  386   [6]  00 02 0B 0F 0A 0F
  can1  142   [1]  00
  can1  132   [8]  E8 03 E8 03 E8 03 E8 03
  can1  388   [6]  01 08 11 0F F1 0E
  can1  38A   [6]  01 04 0A 0F 07 0F
  can1  38C   [6]  00 03 08 0F AB 0D
  can1  142   [1]  00
  can1  132   [8]  E8 03 E8 03 E8 03 E8 03
  can1  38E   [6]  04 0A 18 0F 14 0F
  can1  311   [8]  F2 00 F2 00 07 07 00 02
  can1  528   [7]  00 00 00 00 00 00 00
  can1  132   [8]  E8 03 E8 03 E8 03 E8 03
  can1  142   [1]  00
  can1  132   [8]  E8 03 E8 03 E8 03 E8 03
  can1  104   [5]  01 00 00 00 00
  can1  101   [6]  00 00 01 02 00 DC
  can1  142   [1]  00
  can1  302   [8]  87 F7 FF FF EA F7 FF FF
  can1  102   [5]  01 00 00 00 00
  can1  106   [5]  01 00 00 00 00
  can1  132   [8]  E8 03 E8 03 E8 03 E8 03
  can1  105   [5]  01 00 00 00 00
  can1  142   [1]  00
  can1  132   [8]  E8 03 E8 03 E8 03 E8 03
  can1  100   [5]  01 00 00 00 01
  can1  110   [4]  02 00 00 00
  can1  130   [1]  01
  can1  132   [8]  00 00 00 00 00 00 00 00
  can1  132   [8]  E8 03 E8 03 E8 03 E8 03
  can1  142   [1]  00
  can1  200   [6]  05 00 12 00 00 00
  can1  142   [1]  00
  can1  301   [8]  FD A4 05 00 C4 00 00 00
  can1  132   [8]  E8 03 E8 03 E8 03 E8 03
  can1  152   [8]  FD FF 00 00 00 00 00 00
  can1  303   [4]  B6 00 58 00
  can1  142   [1]  00
  can1  530   [4]  DA 5A 4C 00
  can1  132   [8]  E8 03 E8 03 E8 03 E8 03
  can1  162   [6]  7D FA 50 FD 96 40
  can1  142   [1]  00
  can1  132   [8]  E8 03 E8 03 E8 03 E8 03
  can1  142   [1]  00
  can1  107   [5]  01 00 00 00 00
  can1  103   [5]  01 00 00 00 00
  can1  133   [6]  00 00 1A 50 DF 0C
  can1  533   [6]  73 01 E5 00 E4 0C
  can1  132   [8]  E8 03 E8 03 E8 03 E8 03
  can1  142   [1]  00
  can1  543   [4]  A0 01 DF 0C
  can1  553   [4]  0E 5C 0B 00
  can1  132   [8]  E8 03 E8 03 E8 03 E8 03
  can1  142   [1]  00
  can1  132   [8]  E8 03 E8 03 E8 03 E8 03
  can1  142   [1]  00
  can1  132   [8]  E8 03 E8 03 E8 03 E8 03
  can1  104   [5]  01 00 00 00 00
  can1  142   [1]  00
  can1  101   [6]  00 00 01 02 00 DC
  can1  102   [5]  01 00 00 00 00
  can1  132   [8]  E8 03 E8 03 E8 03 E8 03
  can1  132   [8]  00 00 00 00 00 00 00 00
  can1  106   [5]  01 00 00 00 00
  can1  142   [1]  00
  can1  105   [5]  01 00 00 00 00
  can1  132   [8]  E8 03 E8 03 E8 03 E8 03
  can1  152   [8]  FF FF 00 00 00 00 00 00
  can1  100   [5]  01 00 00 00 01
  can1  110   [4]  02 00 00 00
  can1  130   [1]  01
  can1  132   [8]  E8 03 E8 03 E8 03 E8 03
  can1  142   [1]  00
  can1  302   [8]  87 F7 FF FF EA F7 FF FF
  can1  142   [1]  00
  can1  301   [8]  FD A4 05 00 8A 01 00 00
  can1  162   [6]  61 FA 50 FD 81 40
  can1  132   [8]  E8 03 E8 03 E8 03 E8 03
  can1  303   [4]  B6 00 82 00
  can1  142   [1]  00
  can1  132   [8]  E8 03 E8 03 E8 03 E8 03
  can1  142   [1]  00
  can1  132   [8]  E8 03 E8 03 E8 03 E8 03
  can1  142   [1]  00
  can1  107   [5]  01 00 00 00 00
  can1  132   [8]  E8 03 E8 03 E8 03 E8 03
  can1  103   [5]  01 00 00 00 00
  can1  133   [6]  00 00 17 5B 00 09
  can1  142   [1]  00
  can1  132   [8]  E8 03 E8 03 E8 03 E8 03
  can1  142   [1]  00
  can1  132   [8]  E8 03 E8 03 E8 03 E8 03
  can1  142   [1]  00
  can1  132   [8]  E8 03 E8 03 E8 03 E8 03
  can1  104   [5]  01 00 00 00 00
  can1  132   [8]  E8 03 E8 03 E8 03 E8 03
  can1  101   [6]  00 00 01 02 00 DC
  can1  142   [1]  00
  can1  302   [8]  87 F7 FF FF EA F7 FF FF
  can1  102   [5]  01 00 00 00 00
  can1  106   [5]  01 00 00 00 00
  can1  132   [8]  E8 03 E8 03 E8 03 E8 03
  can1  105   [5]  01 00 00 00 00
  can1  142   [1]  00
  can1  301   [8]  74 A3 05 00 00 00 00 00
  can1  100   [5]  01 00 00 00 01
  can1  110   [4]  02 00 00 00
  can1  130   [1]  01
  can1  132   [8]  00 00 00 00 00 00 00 00
  can1  132   [8]  E8 03 E8 03 E8 03 E8 03
  can1  132   [8]  E8 03 E8 03 E8 03 E8 03
  can1  142   [1]  00
  can1  132   [8]  E8 03 E8 03 E8 03 E8 03
  can1  142   [1]  00
  can1  303   [4]  B6 00 59 00
  can1  142   [1]  00
  can1  152   [8]  00 00 00 00 00 00 00 00
  can1  162   [6]  30 FA 3C FD 5F 40
  can1  132   [8]  E8 03 E8 03 E8 03 E8 03
  can1  142   [1]  00
  can1  132   [8]  E8 03 E8 03 E8 03 E8 03
  can1  142   [1]  00
  can1  107   [5]  01 00 00 00 00
  can1  103   [5]  01 00 00 00 00
  can1  132   [8]  E8 03 E8 03 E8 03 E8 03
  can1  133   [6]  00 00 1B 38 DF 0C
  can1  142   [1]  00
  can1  132   [8]  E8 03 E8 03 E8 03 E8 03
  can1  142   [1]  00
  can1  132   [8]  E8 03 E8 03 E8 03 E8 03
  can1  142   [1]  00
  can1  132   [8]  E8 03 E8 03 E8 03 E8 03
  can1  104   [5]  01 00 00 00 00
  can1  101   [6]  00 00 01 02 00 DC
  can1  142   [1]  00
  can1  302   [8]  87 F7 FF FF EA F7 FF FF
  can1  102   [5]  01 00 00 00 00
  can1  106   [5]  01 00 00 00 00
  can1  132   [8]  E8 03 E8 03 E8 03 E8 03
  can1  105   [5]  01 00 00 00 00
  can1  142   [1]  00
  can1  132   [8]  E8 03 E8 03 E8 03 E8 03
  can1  100   [5]  01 00 00 00 01
  can1  110   [4]  02 00 00 00
  can1  130   [1]  01
  can1  132   [8]  00 00 00 00 00 00 00 00
  can1  301   [8]  74 A3 05 00 4E 02 00 00
  can1  142   [1]  00
  can1  132   [8]  E8 03 E8 03 E8 03 E8 03
  can1  142   [1]  00
  can1  303   [4]  B6 00 4A 00
  can1  152   [8]  FE FF 00 00 00 00 02 00
  can1  162   [6]  F5 F9 4C FD 43 40
  can1  132   [8]  E8 03 E8 03 E8 03 E8 03
  can1  142   [1]  00
  can1  132   [8]  E8 03 E8 03 E8 03 E8 03
  can1  142   [1]  00
  can1  132   [8]  E8 03 E8 03 E8 03 E8 03
  can1  107   [5]  01 00 00 00 00
  can1  142   [1]  00
  can1  103   [5]  01 00 00 00 00
  can1  133   [6]  00 00 1A 50 E7 0C
  can1  132   [8]  E8 03 E8 03 E8 03 E8 03
  can1  142   [1]  00
  can1  132   [8]  E8 03 E8 03 E8 03 E8 03
  can1  142   [1]  00
  can1  132   [8]  E8 03 E8 03 E8 03 E8 03
  can1  142   [1]  00
  can1  132   [8]  E8 03 E8 03 E8 03 E8 03
  can1  104   [5]  01 00 00 00 00
  can1  101   [6]  00 00 01 02 00 DC
  can1  142   [1]  00
  can1  302   [8]  87 F7 FF FF EA F7 FF FF
  can1  102   [5]  01 00 00 00 00
  can1  106   [5]  01 00 00 00 00
  can1  132   [8]  E8 03 E8 03 E8 03 E8 03
  can1  105   [5]  01 00 00 00 00
  can1  142   [1]  00
  can1  132   [8]  E8 03 E8 03 E8 03 E8 03
  can1  100   [5]  01 00 00 00 01
  can1  110   [4]  02 00 00 00
  can1  130   [1]  01
  can1  132   [8]  00 00 00 00 00 00 00 00
  can1  132   [8]  E8 03 E8 03 E8 03 E8 03
  can1  142   [1]  00
  can1  301   [8]  AF A2 05 00 C5 00 00 00
  can1  142   [1]  00
  can1  303   [4]  B6 00 63 00
  can1  132   [8]  E8 03 E8 03 E8 03 E8 03
  can1  152   [8]  FB FF 00 00 00 00 03 00
  can1  142   [1]  00
  can1  162   [6]  54 FA 54 FD 5F 40
  can1  132   [8]  E8 03 E8 03 E8 03 E8 03
  can1  142   [1]  00
  can1  132   [8]  E8 03 E8 03 E8 03 E8 03
  can1  142   [1]  00
  can1  107   [5]  01 00 00 00 00
  can1  103   [5]  01 00 00 00 00
  can1  133   [6]  00 00 1A 50 E2 0C
  can1  132   [8]  E8 03 E8 03 E8 03 E8 03
  can1  142   [1]  00
  can1  132   [8]  E8 03 E8 03 E8 03 E8 03
  can1  142   [1]  00
  can1  132   [8]  E8 03 E8 03 E8 03 E8 03
  can1  142   [1]  00
  can1  132   [8]  E8 03 E8 03 E8 03 E8 03
  can1  104   [5]  01 00 00 00 00
  can1  142   [1]  00
  can1  101   [6]  00 00 01 02 00 DC
  can1  102   [5]  01 00 00 00 00
  can1  302   [8]  79 F8 FF FF EC F7 FF FF
  can1  106   [5]  01 00 00 00 00
  can1  132   [8]  00 00 00 00 00 00 00 00
  can1  105   [5]  01 00 00 00 00
  can1  132   [8]  E8 03 E8 03 E8 03 E8 03
  can1  100   [5]  01 00 00 00 01
  can1  110   [4]  02 00 00 00
  can1  130   [1]  01
  can1  132   [8]  E8 03 E8 03 E8 03 E8 03
  can1  142   [1]  00
  can1  132   [8]  E8 03 E8 03 E8 03 E8 03
  can1  142   [1]  00
  can1  301   [8]  74 A3 05 00 C4 00 00 00
  can1  142   [1]  00
  can1  132   [8]  E8 03 E8 03 E8 03 E8 03
  can1  303   [4]  B6 00 9F 00
  can1  142   [1]  00
  can1  152   [8]  09 00 00 00 00 00 01 00
  can1  162   [6]  3D FA 60 FD 5E 40
  can1  132   [8]  E8 03 E8 03 E8 03 E8 03
  can1  142   [1]  00
  can1  132   [8]  E8 03 E8 03 E8 03 E8 03
  can1  142   [1]  00
  can1  107   [5]  01 00 00 00 00
  can1  132   [8]  E8 03 E8 03 E8 03 E8 03
  can1  103   [5]  01 00 00 00 00
  can1  133   [6]  00 00 1A 50 E9 0C
  can1  142   [1]  00
  can1  132   [8]  E8 03 E8 03 E8 03 E8 03
  can1  142   [1]  00
  can1  132   [8]  E8 03 E8 03 E8 03 E8 03
  can1  142   [1]  00
  can1  132   [8]  E8 03 E8 03 E8 03 E8 03
  can1  104   [5]  01 00 00 00 00
  can1  142   [1]  00
  can1  101   [6]  00 00 01 02 00 DC
  can1  302   [8]  87 F7 FF FF EB F7 FF FF
  can1  132   [8]  E8 03 E8 03 E8 03 E8 03
  can1  301   [8]  74 A3 05 00 8A 01 00 00
  can1  102   [5]  01 00 00 00 00
  can1  106   [5]  01 00 00 00 00
  can1  105   [5]  01 00 00 00 00
  can1  132   [8]  E8 03 E8 03 E8 03 E8 03
  can1  100   [5]  01 00 00 00 01
  can1  110   [4]  02 00 00 00
  can1  130   [1]  01
  can1  132   [8]  E8 03 E8 03 E8 03 E8 03
  can1  142   [1]  00
  can1  303   [4]  B6 00 82 00
  can1  142   [1]  00
  can1  142   [1]  00
  can1  132   [8]  00 00 00 00 00 00 00 00
  can1  132   [8]  E8 03 E8 03 E8 03 E8 03
  can1  152   [8]  FE FF 00 00 00 00 01 00
  can1  142   [1]  00
  can1  162   [6]  27 FA 3C FD 7A 40
  can1  132   [8]  E8 03 E8 03 E8 03 E8 03
  can1  142   [1]  00
  can1  132   [8]  E8 03 E8 03 E8 03 E8 03
  can1  142   [1]  00
  can1  107   [5]  01 00 00 00 00
  can1  103   [5]  01 00 00 00 00
  can1  132   [8]  E8 03 E8 03 E8 03 E8 03
  can1  133   [6]  00 00 1A 50 E8 0C
  can1  132   [8]  E8 03 E8 03 E8 03 E8 03
  can1  142   [1]  00
  can1  142   [1]  00
  can1  132   [8]  E8 03 E8 03 E8 03 E8 03
  can1  132   [8]  E8 03 E8 03 E8 03 E8 03
  can1  142   [1]  00
  can1  132   [8]  E8 03 E8 03 E8 03 E8 03
  can1  104   [5]  01 00 00 00 00
  can1  101   [6]  00 00 01 02 00 DC
  can1  142   [1]  00
  can1  302   [8]  87 F7 FF FF EA F7 FF FF
  can1  102   [5]  01 00 00 00 00
  can1  106   [5]  01 00 00 00 00
  can1  132   [8]  E8 03 E8 03 E8 03 E8 03
  can1  105   [5]  01 00 00 00 00
  can1  142   [1]  00
  can1  301   [8]  86 A6 05 00 00 00 00 00
  can1  100   [5]  01 00 00 00 01
  can1  110   [4]  02 00 00 00
  can1  130   [1]  01
  can1  132   [8]  E8 03 E8 03 E8 03 E8 03
  can1  142   [1]  00
  can1  303   [4]  B6 00 6C 00
  can1  132   [8]  00 00 00 00 00 00 00 00
  can1  132   [8]  E8 03 E8 03 E8 03 E8 03
  can1  142   [1]  00
  can1  535   [4]  7B 0A 83 00
  can1  152   [8]  F6 FF 00 00 00 00 00 00
  can1  132   [8]  E8 03 E8 03 E8 03 E8 03
  can1  142   [1]  00
  can1  162   [6]  EE F9 44 FD 97 40
  can1  132   [8]  E8 03 E8 03 E8 03 E8 03
  can1  142   [1]  00
  can1  132   [8]  E8 03 E8 03 E8 03 E8 03
  can1  103   [5]  01 00 00 04 00
  can1  107   [5]  01 00 00 00 00
  can1  132   [8]  E8 03 E8 03 E8 03 E8 03
  can1  133   [6]  00 00 19 4E 4F 0C
  can1  142   [1]  00
  can1  142   [1]  00
  can1  132   [8]  E8 03 E8 03 E8 03 E8 03
  can1  142   [1]  00
  can1  132   [8]  E8 03 E8 03 E8 03 E8 03
  can1  142   [1]  00
  can1  132   [8]  E8 03 E8 03 E8 03 E8 03
  can1  104   [5]  01 00 00 00 00
  can1  142   [1]  00
  can1  101   [6]  00 00 01 02 00 DC
  can1  102   [5]  01 00 00 00 00
  can1  132   [8]  E8 03 E8 03 E8 03 E8 03
  can1  234   [6]  00 00 EF 00 F0 00
  can1  106   [5]  01 00 00 00 00
  can1  142   [1]  00
  can1  105   [5]  01 00 00 00 00
  can1  132   [8]  00 00 00 00 00 00 00 00
  can1  100   [5]  01 00 00 00 01
  can1  110   [4]  02 00 00 00
  can1  130   [1]  01
  can1  132   [8]  E8 03 E8 03 E8 03 E8 03
  can1  142   [1]  00
  can1  132   [8]  E8 03 E8 03 E8 03 E8 03
  can1  142   [1]  00
  can1  236   [2]  00 00
  can1  132   [8]  E8 03 E8 03 E8 03 E8 03
  can1  152   [8]  01 00 00 00 00 00 01 00
  can1  254   [2]  00 00
  can1  162   [6]  64 FA 4C FD 88 40
  can1  302   [8]  87 F7 FF FF EA F7 FF FF
  can1  132   [8]  E8 03 E8 03 E8 03 E8 03
  can1  142   [1]  00
  can1  301   [8]  FD A4 05 00 C4 00 00 00
  can1  142   [1]  00
  can1  303   [4]  B6 00 63 00
  can1  132   [8]  E8 03 E8 03 E8 03 E8 03
  can1  534   [4]  EB 5B EA 5C
  can1  544   [6]  12 00 22 00 05 00
  can1  142   [1]  00
  can1  107   [5]  01 00 00 00 00
  can1  103   [5]  01 00 00 00 00
  can1  132   [8]  E8 03 E8 03 E8 03 E8 03
  can1  133   [6]  00 00 1A 50 E9 0C
  can1  132   [8]  E8 03 E8 03 E8 03 E8 03
  can1  142   [1]  00
  can1  237   [2]  00 00
  can1  142   [1]  00
  can1  132   [8]  E8 03 E8 03 E8 03 E8 03
  can1  142   [1]  00
  can1  132   [8]  E8 03 E8 03 E8 03 E8 03
  can1  104   [5]  01 00 00 00 00
  can1  142   [1]  00
  can1  132   [8]  E8 03 E8 03 E8 03 E8 03
  can1  102   [5]  01 00 00 00 00
  can1  132   [8]  00 00 00 00 00 00 00 00
  can1  152   [8]  01 00 00 00 00 00 01 00
  can1  106   [5]  01 00 00 00 00
  can1  105   [5]  01 00 00 00 00
  can1  132   [8]  E8 03 E8 03 E8 03 E8 03
  can1  142   [1]  00
  can1  100   [5]  01 00 00 00 01
  can1  110   [4]  02 00 00 00
  can1  130   [1]  01
  can1  132   [8]  E8 03 E8 03 E8 03 E8 03
  can1  162   [6]  0C FA 30 FD 4E 40
  can1  142   [1]  00
  can1  142   [1]  00
  can1  132   [8]  E8 03 E8 03 E8 03 E8 03
  can1  142   [1]  00
  can1  132   [8]  E8 03 E8 03 E8 03 E8 03
  can1  101   [6]  00 00 01 02 00 DD
  can1  142   [1]  00
  can1  302   [8]  87 F7 FF FF EA F7 FF FF
  can1  132   [8]  E8 03 E8 03 E8 03 E8 03
  can1  301   [8]  FD A4 05 00 C4 00 00 00
  can1  142   [1]  00
  can1  107   [5]  01 00 00 00 00
  can1  132   [8]  E8 03 E8 03 E8 03 E8 03
  can1  103   [5]  01 00 00 00 00
  can1  133   [6]  00 00 1A 50 EC 0C
  can1  380   [6]  02 00 16 0F 14 0F
  can1  142   [1]  00
  can1  132   [8]  E8 03 E8 03 E8 03 E8 03
  can1  382   [6]  01 02 08 0F 03 0F
  can1  384   [6]  04 00 08 0F 06 0F
  can1  303   [4]  B6 00 63 00
  can1  142   [1]  00
  can1  132   [8]  E8 03 E8 03 E8 03 E8 03
  can1  310   [8]  03 0F 16 0F 01 02 00 02
  can1  311   [8]  F2 00 F2 00 07 07 00 02
  can1  381   [6]  02 03 F2 00 E8 00
  can1  132   [8]  E8 03 E8 03 E8 03 E8 03
  can1  142   [1]  00
  can1  389   [6]  00 03 F1 00 EE 00
  can1  383   [6]  02 00 F6 00 F0 00
  can1  104   [5]  01 00 00 00 00
  can1  132   [8]  E8 03 E8 03 E8 03 E8 03
  can1  142   [1]  00
  can1  528   [7]  00 00 00 00 00 00 00
  can1  385   [6]  07 06 F1 00 ED 00
  can1  102   [5]  01 00 00 00 00
  can1  106   [5]  01 00 00 00 00
  can1  105   [5]  01 00 00 00 00
  can1  132   [8]  E8 03 E8 03 E8 03 E8 03
  can1  100   [5]  01 00 00 00 01
  can1  110   [4]  02 00 00 00
  can1  130   [1]  01
  can1  132   [8]  E8 03 E8 03 E8 03 E8 03
  can1  142   [1]  00
  can1  200   [6]  06 00 12 00 00 00
  can1  132   [8]  E8 03 E8 03 E8 03 E8 03
  can1  142   [1]  00
  can1  386   [6]  00 02 0B 0F 0A 0F
  can1  142   [1]  00
  can1  388   [6]  01 08 11 0F F1 0E
  can1  132   [8]  00 00 00 00 00 00 00 00
  can1  132   [8]  E8 03 E8 03 E8 03 E8 03
  can1  142   [1]  00
  can1  38A   [6]  01 04 0A 0F 07 0F
  can1  132   [8]  E8 03 E8 03 E8 03 E8 03
  can1  152   [8]  FC FF 00 00 00 00 02 00
  can1  38C   [6]  01 03 07 0F AA 0D
  can1  142   [1]  00
  can1  38E   [6]  04 0A 18 0F 14 0F
  can1  132   [8]  E8 03 E8 03 E8 03 E8 03
  can1  101   [6]  00 00 01 02 00 DD
  can1  107   [5]  01 00 00 00 00
  can1  103   [5]  01 00 00 00 00
  can1  133   [6]  00 00 1A 50 E1 0C
  can1  132   [8]  E8 03 E8 03 E8 03 E8 03
  can1  162   [6]  12 FA 64 FD 73 40
  can1  302   [8]  87 F7 FF FF EA F7 FF FF
  can1  142   [1]  00
  can1  132   [8]  E8 03 E8 03 E8 03 E8 03
  can1  142   [1]  00
  can1  301   [8]  74 A3 05 00 C5 00 00 00
  can1  142   [1]  00
  can1  303   [4]  B6 00 79 00
  can1  387   [6]  05 01 F3 00 F1 00
  can1  38B   [6]  05 03 F6 00 F0 00
  can1  38D   [6]  05 03 F4 00 F1 00
  can1  132   [8]  E8 03 E8 03 E8 03 E8 03
  can1  142   [1]  00
  can1  38F   [6]  05 07 F6 00 F2 00
  can1  530   [4]  06 5B 4F 00
  can1  533   [6]  7E 01 EC 00 E1 0C
  can1  104   [5]  01 00 00 00 00
  can1  132   [8]  E8 03 E8 03 E8 03 E8 03
  can1  142   [1]  00
  can1  543   [4]  A1 01 E1 0C
  can1  102   [5]  01 00 00 00 00
  can1  106   [5]  01 00 00 00 00
  can1  142   [1]  00
  can1  132   [8]  E8 03 E8 03 E8 03 E8 03
  can1  105   [5]  01 00 00 00 00
  can1  132   [8]  00 00 00 00 00 00 00 00
  can1  100   [5]  01 00 00 00 01
  can1  110   [4]  02 00 00 00
  can1  130   [1]  01
  can1  132   [8]  E8 03 E8 03 E8 03 E8 03
  can1  142   [1]  00
  can1  553   [4]  F4 5B 14 00
  can1  142   [1]  00
  can1  152   [8]  FD FF 00 00 00 00 01 00
  can1  132   [8]  E8 03 E8 03 E8 03 E8 03
  can1  162   [6]  1A FA 58 FD 35 40
  can1  142   [1]  00
  can1  132   [8]  E8 03 E8 03 E8 03 E8 03
  can1  142   [1]  00
  can1  132   [8]  E8 03 E8 03 E8 03 E8 03
  can1  101   [6]  00 00 01 02 00 DD
  can1  107   [5]  01 00 00 00 00
  can1  142   [1]  00
  can1  103   [5]  01 00 00 06 00
  can1  133   [6]  00 00 18 49 80 0C
  can1  132   [8]  E8 03 E8 03 E8 03 E8 03
  can1  142   [1]  00
  can1  302   [8]  87 F7 FF FF EA F7 FF FF
  can1  301   [8]  74 A3 05 00 89 01 00 00
  can1  132   [8]  E8 03 E8 03 E8 03 E8 03
  can1  303   [4]  B6 00 35 00
  can1  142   [1]  00
  can1  132   [8]  E8 03 E8 03 E8 03 E8 03
  can1  142   [1]  00
  can1  132   [8]  E8 03 E8 03 E8 03 E8 03
  can1  104   [5]  01 00 00 00 00
  can1  142   [1]  00
  can1  102   [5]  01 00 00 00 00
  can1  132   [8]  00 00 00 00 00 00 00 00
  can1  132   [8]  E8 03 E8 03 E8 03 E8 03
  can1  152   [8]  01 00 00 00 00 00 02 00
  can1  106   [5]  01 00 00 00 00
  can1  105   [5]  01 00 00 00 00
  can1  142   [1]  00
  can1  132   [8]  E8 03 E8 03 E8 03 E8 03
  can1  100   [5]  01 00 00 00 01
  can1  110   [4]  02 00 00 00
  can1  130   [1]  01
  can1  162   [6]  46 FA 3C FD AE 40
  can1  142   [1]  00
  can1  132   [8]  E8 03 E8 03 E8 03 E8 03
  can1  142   [1]  00
  can1  132   [8]  E8 03 E8 03 E8 03 E8 03
  can1  142   [1]  00
  can1  132   [8]  E8 03 E8 03 E8 03 E8 03
  can1  142   [1]  00
  can1  132   [8]  E8 03 E8 03 E8 03 E8 03
  can1  101   [6]  00 00 01 02 00 DD
  can1  107   [5]  01 00 00 00 00
  can1  103   [5]  01 00 00 06 00
  can1  132   [8]  E8 03 E8 03 E8 03 E8 03
  can1  133   [6]  00 00 19 51 38 0F
  can1  142   [1]  00
  can1  302   [8]  87 F7 FF FF EA F7 FF FF
  can1  132   [8]  E8 03 E8 03 E8 03 E8 03
  can1  142   [1]  00
  can1  301   [8]  AF A2 05 00 C5 00 00 00
  can1  142   [1]  00
  can1  132   [8]  E8 03 E8 03 E8 03 E8 03
  can1  303   [4]  B6 00 9F 00
  can1  142   [1]  00
  can1  132   [8]  E8 03 E8 03 E8 03 E8 03
  can1  104   [5]  01 00 00 00 00
  can1  142   [1]  00
  can1  132   [8]  E8 03 E8 03 E8 03 E8 03
  can1  106   [5]  01 00 00 00 00
  can1  102   [5]  01 00 00 00 00
  can1  132   [8]  E8 03 E8 03 E8 03 E8 03
  can1  105   [5]  01 00 00 00 00
  can1  142   [1]  00
  can1  100   [5]  01 00 00 00 01
  can1  110   [4]  02 00 00 00
  can1  130   [1]  01
  can1  132   [8]  00 00 00 00 00 00 00 00
  can1  132   [8]  E8 03 E8 03 E8 03 E8 03
  can1  132   [8]  E8 03 E8 03 E8 03 E8 03
  can1  142   [1]  00
  can1  142   [1]  00
  can1  152   [8]  04 00 00 00 00 00 00 00
  can1  162   [6]  04 FA 4C FD 9E 40
  can1  132   [8]  E8 03 E8 03 E8 03 E8 03
  can1  142   [1]  00
  can1  132   [8]  E8 03 E8 03 E8 03 E8 03
  can1  142   [1]  00
  can1  132   [8]  E8 03 E8 03 E8 03 E8 03
  can1  101   [6]  00 00 01 02 00 DD
  can1  107   [5]  01 00 00 00 00
  can1  103   [5]  01 00 00 04 00
  can1  133   [6]  00 00 19 4D AF 0B
  can1  142   [1]  00
  can1  302   [8]  79 F8 FF FF EC F7 FF FF
  can1  132   [8]  E8 03 E8 03 E8 03 E8 03
  can1  142   [1]  00
  can1  301   [8]  38 A4 05 00 C5 00 00 00
  can1  303   [4]  B6 00 58 00
  can1  142   [1]  00
  can1  132   [8]  E8 03 E8 03 E8 03 E8 03
  can1  142   [1]  00
  can1  132   [8]  E8 03 E8 03 E8 03 E8 03
  can1  104   [5]  01 00 00 00 00
  can1  142   [1]  00
  can1  102   [5]  01 00 00 00 00
  can1  132   [8]  E8 03 E8 03 E8 03 E8 03
  can1  132   [8]  00 00 00 00 00 00 00 00
  can1  152   [8]  0B 00 00 00 00 00 00 00
  can1  106   [5]  01 00 00 00 00
  can1  105   [5]  01 00 00 00 00
  can1  132   [8]  E8 03 E8 03 E8 03 E8 03
  can1  142   [1]  00
  can1  100   [5]  01 00 00 00 01
  can1  110   [4]  02 00 00 00
  can1  130   [1]  01
  can1  132   [8]  E8 03 E8 03 E8 03 E8 03
  can1  162   [6]  20 FA 3C FD A2 40
  can1  142   [1]  00
  can1  142   [1]  00
  can1  132   [8]  E8 03 E8 03 E8 03 E8 03
  can1  142   [1]  00
  can1  132   [8]  E8 03 E8 03 E8 03 E8 03
  can1  142   [1]  00
  can1  132   [8]  E8 03 E8 03 E8 03 E8 03
  can1  101   [6]  00 00 01 02 00 DD
  can1  107   [5]  01 00 00 00 00
  can1  132   [8]  E8 03 E8 03 E8 03 E8 03
  can1  103   [5]  01 00 00 04 00
  can1  133   [6]  00 00 19 4E 51 0C
  can1  132   [8]  E8 03 E8 03 E8 03 E8 03
  can1  142   [1]  00
  can1  302   [8]  87 F7 FF FF EB F7 FF FF
  can1  142   [1]  00
  can1  301   [8]  AF A2 05 00 C4 00 00 00
  can1  132   [8]  E8 03 E8 03 E8 03 E8 03
  can1  142   [1]  00
  can1  303   [4]  B6 00 55 00
  can1  132   [8]  E8 03 E8 03 E8 03 E8 03
  can1  142   [1]  00
  can1  132   [8]  E8 03 E8 03 E8 03 E8 03
  can1  104   [5]  01 00 00 00 00
  can1  142   [1]  00
  can1  102   [5]  01 00 00 00 00
  can1  132   [8]  00 00 00 00 00 00 00 00
  can1  132   [8]  E8 03 E8 03 E8 03 E8 03
  can1  106   [5]  01 00 00 00 00
  can1  152   [8]  FB FF 00 00 00 00 00 00
  can1  105   [5]  01 00 00 00 00
  can1  132   [8]  E8 03 E8 03 E8 03 E8 03
  can1  142   [1]  00
  can1  100   [5]  01 00 00 00 01
  can1  110   [4]  02 00 00 00
  can1  130   [1]  01
  can1  142   [1]  00
  can1  132   [8]  E8 03 E8 03 E8 03 E8 03
  can1  142   [1]  00
  can1  132   [8]  E8 03 E8 03 E8 03 E8 03
  can1  142   [1]  00
  can1  162   [6]  54 FA 64 FD 5F 40
  can1  132   [8]  E8 03 E8 03 E8 03 E8 03
  can1  142   [1]  00
  can1  132   [8]  E8 03 E8 03 E8 03 E8 03
  can1  101   [6]  00 00 01 02 00 DD
  can1  107   [5]  01 00 00 00 00
  can1  142   [1]  00
  can1  103   [5]  01 00 00 00 00
  can1  132   [8]  E8 03 E8 03 E8 03 E8 03
  can1  133   [6]  00 00 1A 50 D8 0C
  can1  142   [1]  00
  can1  302   [8]  79 F8 FF FF ED F7 FF FF
  can1  301   [8]  FD A4 05 00 C4 00 00 00
  can1  132   [8]  E8 03 E8 03 E8 03 E8 03
  can1  303   [4]  B6 00 84 00
  can1  142   [1]  00
  can1  132   [8]  E8 03 E8 03 E8 03 E8 03
  can1  142   [1]  00
  can1  132   [8]  E8 03 E8 03 E8 03 E8 03
  can1  104   [5]  01 00 00 00 00
  can1  142   [1]  00
  can1  102   [5]  01 00 00 00 00
  can1  132   [8]  00 00 00 00 00 00 00 00
  can1  152   [8]  FC FF 00 00 00 00 01 00
  can1  132   [8]  E8 03 E8 03 E8 03 E8 03
  can1  106   [5]  01 00 00 00 00
  can1  105   [5]  01 00 00 00 00
  can1  162   [6]  4D FA 44 FD 75 40
  can1  142   [1]  00
  can1  132   [8]  E8 03 E8 03 E8 03 E8 03
  can1  100   [5]  01 00 00 00 01
  can1  110   [4]  02 00 00 00
  can1  130   [1]  01
  can1  142   [1]  00
  can1  132   [8]  E8 03 E8 03 E8 03 E8 03
  can1  142   [1]  00
  can1  132   [8]  E8 03 E8 03 E8 03 E8 03
  can1  142   [1]  00
  can1  132   [8]  E8 03 E8 03 E8 03 E8 03
  can1  142   [1]  00
  can1  132   [8]  E8 03 E8 03 E8 03 E8 03
  can1  101   [6]  00 00 01 02 00 DD
  can1  107   [5]  01 00 00 00 00
  can1  142   [1]  00
  can1  103   [5]  01 00 00 04 00
  can1  132   [8]  E8 03 E8 03 E8 03 E8 03
  can1  133   [6]  00 00 19 4E 5D 0C
  can1  142   [1]  00
  can1  302   [8]  79 F8 FF FF EF F7 FF FF
  can1  132   [8]  E8 03 E8 03 E8 03 E8 03
  can1  301   [8]  74 A3 05 00 4E 02 00 00
  can1  303   [4]  B6 00 47 00
  can1  142   [1]  00
  can1  132   [8]  E8 03 E8 03 E8 03 E8 03
  can1  142   [1]  00
  can1  132   [8]  E8 03 E8 03 E8 03 E8 03
  can1  104   [5]  01 00 00 00 00
  can1  106   [5]  01 00 00 00 00
  can1  132   [8]  E8 03 E8 03 E8 03 E8 03
  can1  105   [5]  01 00 00 00 00
  can1  132   [8]  E8 03 E8 03 E8 03 E8 03
  can1  100   [5]  01 00 00 00 01
  can1  110   [4]  02 00 00 00
  can1  130   [1]  01
  can1  132   [8]  E8 03 E8 03 E8 03 E8 03
  can1  142   [1]  00
  can1  535   [4]  82 0A 9E 00
  can1  142   [1]  00
  can1  142   [1]  00
  can1  142   [1]  00
  can1  132   [8]  E8 03 E8 03 E8 03 E8 03
  can1  102   [5]  01 00 00 00 00
  can1  142   [1]  00
  can1  132   [8]  00 00 00 00 00 00 00 00
  can1  132   [8]  E8 03 E8 03 E8 03 E8 03
  can1  152   [8]  FD FF 00 00 00 00 00 00
  can1  142   [1]  00
  can1  162   [6]  2F FA 50 FD 89 40
  can1  132   [8]  E8 03 E8 03 E8 03 E8 03
  can1  101   [6]  00 00 01 02 00 DD
  can1  107   [5]  01 00 00 00 00
  can1  103   [5]  01 00 00 00 00
  can1  133   [6]  00 00 1A 50 D9 0C
  can1  132   [8]  E8 03 E8 03 E8 03 E8 03
  can1  142   [1]  00
  can1  302   [8]  87 F7 FF FF EE F7 FF FF
  can1  142   [1]  00
  can1  301   [8]  74 A3 05 00 89 01 00 00
  can1  303   [4]  B6 00 6A 00
  can1  132   [8]  E8 03 E8 03 E8 03 E8 03
  can1  142   [1]  00
  can1  142   [1]  00
  can1  132   [8]  E8 03 E8 03 E8 03 E8 03
  can1  104   [5]  01 00 00 00 00
  can1  132   [8]  E8 03 E8 03 E8 03 E8 03
  can1  142   [1]  00
  can1  234   [6]  00 00 EF 00 EF 00
  can1  102   [5]  01 00 00 00 00
  can1  106   [5]  01 00 00 00 00
  can1  132   [8]  E8 03 E8 03 E8 03 E8 03
  can1  105   [5]  01 00 00 00 00
  can1  142   [1]  00
  can1  236   [2]  00 00
  can1  100   [5]  01 00 00 00 01
  can1  110   [4]  02 00 00 00
  can1  130   [1]  01
  can1  132   [8]  00 00 00 00 00 00 00 00
  can1  142   [1]  00
  can1  254   [2]  00 00
  can1  142   [1]  00
  can1  534   [4]  E2 5B B5 5C
  can1  142   [1]  00
  can1  544   [6]  11 00 20 00 05 00
  can1  152   [8]  00 00 00 00 00 00 01 00
  can1  162   [6]  52 FA 30 FD 65 40
  can1  142   [1]  00
  can1  101   [6]  00 00 01 02 00 DD
  can1  142   [1]  00
  can1  104   [5]  01 00 00 00 00
  can1  142   [1]  00
  can1  102   [5]  01 00 00 00 00
  can1  132   [8]  E8 03 E8 03 E8 03 E8 03
  can1  132   [8]  E8 03 E8 03 E8 03 E8 03
  can1  132   [8]  E8 03 E8 03 E8 03 E8 03
  can1  132   [8]  E8 03 E8 03 E8 03 E8 03
  can1  132   [8]  E8 03 E8 03 E8 03 E8 03
  can1  132   [8]  E8 03 E8 03 E8 03 E8 03
  can1  132   [8]  E8 03 E8 03 E8 03 E8 03
  can1  132   [8]  E8 03 E8 03 E8 03 E8 03
  can1  132   [8]  00 00 00 00 00 00 00 00
  can1  132   [8]  E8 03 E8 03 E8 03 E8 03
  can1  106   [5]  01 00 00 00 00
  can1  105   [5]  01 00 00 00 00
  can1  152   [8]  05 00 00 00 00 00 02 00
  can1  100   [5]  01 00 00 00 01
  can1  110   [4]  02 00 00 00
  can1  130   [1]  01
  can1  142   [1]  00
  can1  142   [1]  00
  can1  142   [1]  00
  can1  162   [6]  2E FA 4C FD 65 40
  can1  142   [1]  00
  can1  142   [1]  00
  can1  142   [1]  00
  can1  107   [5]  01 00 00 00 00
  can1  132   [8]  E8 03 E8 03 E8 03 E8 03
  can1  132   [8]  E8 03 E8 03 E8 03 E8 03
  can1  132   [8]  E8 03 E8 03 E8 03 E8 03
  can1  132   [8]  E8 03 E8 03 E8 03 E8 03
  can1  132   [8]  E8 03 E8 03 E8 03 E8 03
  can1  132   [8]  E8 03 E8 03 E8 03 E8 03
  can1  103   [5]  01 00 00 00 00
  can1  133   [6]  00 00 1C 39 F6 0F
  can1  142   [1]  00
  can1  132   [8]  E8 03 E8 03 E8 03 E8 03
  can1  142   [1]  00
  can1  132   [8]  E8 03 E8 03 E8 03 E8 03
  can1  142   [1]  00
  can1  132   [8]  E8 03 E8 03 E8 03 E8 03
  can1  104   [5]  01 00 00 00 00
  can1  142   [1]  00
  can1  102   [5]  01 00 00 00 00
  can1  132   [8]  E8 03 E8 03 E8 03 E8 03
  can1  132   [8]  00 00 00 00 00 00 00 00
  can1  152   [8]  F7 FF 00 00 00 00 00 00
  can1  106   [5]  01 00 00 00 00
  can1  101   [6]  00 00 01 02 00 DD
  can1  105   [5]  01 00 00 00 00
  can1  132   [8]  E8 03 E8 03 E8 03 E8 03
  can1  100   [5]  01 00 00 00 01
  can1  110   [4]  02 00 00 00
  can1  130   [1]  01
  can1  142   [1]  00
  can1  132   [8]  E8 03 E8 03 E8 03 E8 03
  can1  142   [1]  00
  can1  200   [6]  06 00 12 00 00 00
  can1  162   [6]  2E FA 48 FD 65 40
  can1  380   [6]  02 00 16 0F 14 0F
  can1  132   [8]  E8 03 E8 03 E8 03 E8 03
  can1  142   [1]  00
  can1  302   [8]  79 F8 FF FF EE F7 FF FF
  can1  142   [1]  00
  can1  310   [8]  03 0F 16 0F 01 02 00 02
  can1  528   [7]  00 00 00 00 00 00 00
  can1  132   [8]  E8 03 E8 03 E8 03 E8 03
  can1  301   [8]  AF A2 05 00 C5 00 00 00
  can1  142   [1]  00
  can1  303   [4]  B6 00 6A 00
  can1  382   [6]  01 02 08 0F 03 0F
  can1  384   [6]  04 00 08 0F 06 0F
  can1  132   [8]  E8 03 E8 03 E8 03 E8 03
  can1  107   [5]  01 00 00 00 00
  can1  142   [1]  00
  can1  103   [5]  01 00 00 06 00
  can1  133   [6]  00 00 19 4F AB 0B
  can1  132   [8]  E8 03 E8 03 E8 03 E8 03
  can1  142   [1]  00
  can1  386   [6]  00 02 0B 0F 0A 0F
  can1  388   [6]  01 08 11 0F F1 0E
  can1  38A   [6]  01 04 0A 0F 07 0F
  can1  132   [8]  E8 03 E8 03 E8 03 E8 03
  can1  142   [1]  00
  can1  38C   [6]  01 03 07 0F AA 0D
  can1  38E   [6]  05 00 19 0F 15 0F
  can1  311   [8]  F2 00 F2 00 07 07 00 02
  can1  132   [8]  E8 03 E8 03 E8 03 E8 03
  can1  142   [1]  00
  can1  530   [4]  F4 5A 52 00
  can1  533   [6]  90 01 E5 00 BB 0C
  can1  543   [4]  9F 01 AB 0B
  can1  132   [8]  E8 03 E8 03 E8 03 E8 03
  can1  104   [5]  01 00 00 00 00
  can1  142   [1]  00
  can1  553   [4]  77 47 25 00
  can1  102   [5]  01 00 00 00 00
  can1  132   [8]  E8 03 E8 03 E8 03 E8 03
  can1  132   [8]  00 00 00 00 00 00 00 00
  can1  106   [5]  01 00 00 00 00
  can1  142   [1]  00
  can1  105   [5]  01 00 00 00 00
  can1  132   [8]  E8 03 E8 03 E8 03 E8 03
  can1  152   [8]  00 00 00 00 00 00 01 00
  can1  100   [5]  01 00 00 00 01
  can1  101   [6]  00 00 01 02 00 DD
  can1  110   [4]  02 00 00 00
  can1  130   [1]  01
  can1  132   [8]  E8 03 E8 03 E8 03 E8 03
  can1  142   [1]  00
  can1  302   [8]  87 F7 FF FF ED F7 FF FF
  can1  142   [1]  00
  can1  132   [8]  E8 03 E8 03 E8 03 E8 03
  can1  162   [6]  44 FA 3C FD 6C 40
  can1  301   [8]  AF A2 05 00 00 00 00 00
  can1  142   [1]  00
  can1  303   [4]  B6 00 7D 00
  can1  132   [8]  E8 03 E8 03 E8 03 E8 03
  can1  142   [1]  00
  can1  132   [8]  E8 03 E8 03 E8 03 E8 03
  can1  142   [1]  00
  can1  107   [5]  01 00 00 00 00
  can1  103   [5]  01 00 00 04 00
  can1  132   [8]  E8 03 E8 03 E8 03 E8 03
  can1  133   [6]  00 00 1B 52 C2 0C
  can1  132   [8]  E8 03 E8 03 E8 03 E8 03
  can1  142   [1]  00
  can1  142   [1]  00
  can1  132   [8]  E8 03 E8 03 E8 03 E8 03
  can1  142   [1]  00
  can1  132   [8]  E8 03 E8 03 E8 03 E8 03
  can1  104   [5]  01 00 00 00 00
  can1  132   [8]  E8 03 E8 03 E8 03 E8 03
  can1  142   [1]  00
  can1  102   [5]  01 00 00 00 00
  can1  132   [8]  00 00 00 00 00 00 00 00
  can1  152   [8]  F7 FF 00 00 00 00 02 00
  can1  106   [5]  01 00 00 00 00
  can1  105   [5]  01 00 00 00 00
  can1  132   [8]  E8 03 E8 03 E8 03 E8 03
  can1  142   [1]  00
  can1  100   [5]  01 00 00 00 01
  can1  110   [4]  02 00 00 00
  can1  101   [6]  00 00 01 02 00 DD
  can1  130   [1]  01
  can1  132   [8]  E8 03 E8 03 E8 03 E8 03
  can1  162   [6]  0C FA 34 FD 60 40
  can1  302   [8]  79 F8 FF FF EF F7 FF FF
  can1  132   [8]  E8 03 E8 03 E8 03 E8 03
  can1  142   [1]  00
  can1  301   [8]  FD A4 05 00 00 00 00 00
  can1  142   [1]  00
  can1  132   [8]  E8 03 E8 03 E8 03 E8 03
  can1  142   [1]  00
  can1  303   [4]  B6 00 65 00
  can1  132   [8]  E8 03 E8 03 E8 03 E8 03
  can1  142   [1]  00
  can1  132   [8]  E8 03 E8 03 E8 03 E8 03
  can1  107   [5]  01 00 00 00 00
  can1  142   [1]  00
  can1  103   [5]  01 00 00 02 00
  can1  133   [6]  00 00 19 4B 80 0D
  can1  132   [8]  E8 03 E8 03 E8 03 E8 03
  can1  142   [1]  00
  can1  142   [1]  00
  can1  132   [8]  E8 03 E8 03 E8 03 E8 03
  can1  142   [1]  00
  can1  132   [8]  E8 03 E8 03 E8 03 E8 03
  can1  104   [5]  01 00 00 00 00
  can1  142   [1]  00
  can1  132   [8]  E8 03 E8 03 E8 03 E8 03
  can1  102   [5]  01 00 00 00 00
  can1  132   [8]  00 00 00 00 00 00 00 00
  can1  152   [8]  01 00 00 00 00 00 00 00
  can1  106   [5]  01 00 00 00 00
  can1  105   [5]  01 00 00 00 00
  can1  132   [8]  E8 03 E8 03 E8 03 E8 03
  can1  142   [1]  00
  can1  100   [5]  01 00 00 00 01
  can1  110   [4]  02 00 00 00
  can1  101   [6]  00 00 01 02 00 DD
  can1  130   [1]  01
  can1  132   [8]  E8 03 E8 03 E8 03 E8 03
  can1  162   [6]  4D FA 58 FD 75 40
  can1  302   [8]  87 F7 FF FF EE F7 FF FF
  can1  132   [8]  E8 03 E8 03 E8 03 E8 03
  can1  142   [1]  00
  can1  301   [8]  74 A3 05 00 89 01 00 00
  can1  142   [1]  00
  can1  303   [4]  B6 00 75 00
  can1  142   [1]  00
  can1  132   [8]  E8 03 E8 03 E8 03 E8 03
  can1  142   [1]  00
  can1  132   [8]  E8 03 E8 03 E8 03 E8 03
  can1  142   [1]  00
  can1  132   [8]  E8 03 E8 03 E8 03 E8 03
  can1  107   [5]  01 00 00 00 00
  can1  103   [5]  01 00 00 06 00
  can1  133   [6]  00 00 18 4C 57 0B
  can1  142   [1]  00
  can1  132   [8]  E8 03 E8 03 E8 03 E8 03
  can1  142   [1]  00
  can1  132   [8]  E8 03 E8 03 E8 03 E8 03
  can1  142   [1]  00
  can1  132   [8]  E8 03 E8 03 E8 03 E8 03
  can1  104   [5]  01 00 00 00 00
  can1  132   [8]  E8 03 E8 03 E8 03 E8 03
  can1  142   [1]  00
  can1  102   [5]  01 00 00 00 00
  can1  132   [8]  00 00 00 00 00 00 00 00
  can1  152   [8]  08 00 00 00 00 00 01 00
  can1  106   [5]  01 00 00 00 00
  can1  105   [5]  01 00 00 00 00
  can1  132   [8]  E8 03 E8 03 E8 03 E8 03
  can1  142   [1]  00
  can1  100   [5]  01 00 00 00 01
  can1  110   [4]  02 00 00 00
  can1  101   [6]  00 00 01 02 00 DD
  can1  130   [1]  01
  can1  132   [8]  E8 03 E8 03 E8 03 E8 03
  can1  162   [6]  24 FA 28 FD 73 40
  can1  132   [8]  E8 03 E8 03 E8 03 E8 03
  can1  142   [1]  00
  can1  302   [8]  87 F7 FF FF ED F7 FF FF
  can1  142   [1]  00
  can1  301   [8]  74 A3 05 00 89 01 00 00
  can1  132   [8]  E8 03 E8 03 E8 03 E8 03
  can1  142   [1]  00
  can1  303   [4]  B6 00 63 00
  can1  132   [8]  E8 03 E8 03 E8 03 E8 03
  can1  142   [1]  00
  can1  132   [8]  E8 03 E8 03 E8 03 E8 03
  can1  142   [1]  00
  can1  107   [5]  01 00 00 00 00
  can1  103   [5]  01 00 00 04 00
  can1  132   [8]  E8 03 E8 03 E8 03 E8 03
  can1  133   [6]  00 00 17 48 AD 0B
  can1  142   [1]  00
  can1  132   [8]  E8 03 E8 03 E8 03 E8 03
  can1  142   [1]  00
  can1  132   [8]  E8 03 E8 03 E8 03 E8 03
  can1  142   [1]  00
  can1  132   [8]  E8 03 E8 03 E8 03 E8 03
  can1  104   [5]  01 00 00 00 00
  can1  142   [1]  00
  can1  102   [5]  01 00 00 00 00
  can1  132   [8]  00 00 00 00 00 00 00 00
  can1  132   [8]  E8 03 E8 03 E8 03 E8 03
  can1  152   [8]  0B 00 00 00 00 00 00 00
  can1  106   [5]  01 00 00 00 00
  can1  105   [5]  01 00 00 00 00
  can1  132   [8]  E8 03 E8 03 E8 03 E8 03
  can1  142   [1]  00
  can1  100   [5]  01 00 00 00 01
  can1  110   [4]  02 00 00 00
  can1  101   [6]  00 00 01 02 00 DD
  can1  130   [1]  01
  can1  132   [8]  E8 03 E8 03 E8 03 E8 03
  can1  142   [1]  00
  can1  302   [8]  87 F7 FF FF EC F7 FF FF
  can1  162   [6]  0C FA 38 FD 60 40
  can1  132   [8]  E8 03 E8 03 E8 03 E8 03
  can1  142   [1]  00
  can1  301   [8]  74 A3 05 00 89 01 00 00
  can1  303   [4]  B6 00 75 00
  can1  142   [1]  00
  can1  132   [8]  E8 03 E8 03 E8 03 E8 03
  can1  142   [1]  00
  can1  132   [8]  E8 03 E8 03 E8 03 E8 03
  can1  142   [1]  00
  can1  132   [8]  E8 03 E8 03 E8 03 E8 03
  can1  107   [5]  01 00 00 00 00
  can1  103   [5]  01 00 00 04 00
  can1  133   [6]  00 00 18 5A 27 09
  can1  142   [1]  00
  can1  132   [8]  E8 03 E8 03 E8 03 E8 03
  can1  142   [1]  00
  can1  132   [8]  E8 03 E8 03 E8 03 E8 03
  can1  142   [1]  00
  can1  132   [8]  E8 03 E8 03 E8 03 E8 03
  can1  104   [5]  01 00 00 00 00
  can1  132   [8]  E8 03 E8 03 E8 03 E8 03
  can1  142   [1]  00
  can1  102   [5]  01 00 00 00 00
  can1  132   [8]  00 00 00 00 00 00 00 00
  can1  152   [8]  07 00 00 00 00 00 02 00
  can1  106   [5]  01 00 00 00 00
  can1  105   [5]  01 00 00 00 00
  can1  132   [8]  E8 03 E8 03 E8 03 E8 03
  can1  142   [1]  00
  can1  100   [5]  01 00 00 00 01
  can1  110   [4]  02 00 00 00
  can1  101   [6]  00 00 01 02 00 DD
  can1  130   [1]  01
  can1  132   [8]  E8 03 E8 03 E8 03 E8 03
  can1  132   [8]  E8 03 E8 03 E8 03 E8 03
  can1  162   [6]  2F FA 00 FD 89 40
  can1  302   [8]  87 F7 FF FF EB F7 FF FF
  can1  142   [1]  00
  can1  301   [8]  FD A4 05 00 C5 00 00 00
  can1  132   [8]  E8 03 E8 03 E8 03 E8 03
  can1  142   [1]  00
  can1  303   [4]  B6 00 AC 00
  can1  142   [1]  00
  can1  132   [8]  E8 03 E8 03 E8 03 E8 03
  can1  142   [1]  00
  can1  132   [8]  E8 03 E8 03 E8 03 E8 03
  can1  142   [1]  00
  can1  107   [5]  01 00 00 00 00
  can1  103   [5]  01 00 00 04 00
  can1  132   [8]  E8 03 E8 03 E8 03 E8 03
  can1  133   [6]  00 00 1A 50 AC 0C
  can1  142   [1]  00
  can1  132   [8]  E8 03 E8 03 E8 03 E8 03
  can1  142   [1]  00
  can1  132   [8]  E8 03 E8 03 E8 03 E8 03
  can1  142   [1]  00
  can1  132   [8]  E8 03 E8 03 E8 03 E8 03
  can1  104   [5]  01 00 00 00 00
  can1  142   [1]  00
  can1  132   [8]  E8 03 E8 03 E8 03 E8 03
  can1  102   [5]  01 00 00 00 00
  can1  132   [8]  00 00 00 00 00 00 00 00
  can1  152   [8]  FE FF 00 00 00 00 01 00
  can1  106   [5]  01 00 00 00 00
  can1  142   [1]  00
  can1  105   [5]  01 00 00 00 00
  can1  132   [8]  E8 03 E8 03 E8 03 E8 03
  can1  100   [5]  01 00 00 00 01
  can1  110   [4]  02 00 00 00
  can1  101   [6]  00 00 01 02 00 DD
  can1  130   [1]  01
  can1  132   [8]  E8 03 E8 03 E8 03 E8 03
  can1  162   [6]  54 FA 58 FD 83 40
  can1  302   [8]  79 F8 FF FF ED F7 FF FF
  can1  142   [1]  00
  can1  132   [8]  E8 03 E8 03 E8 03 E8 03
  can1  142   [1]  00
  can1  301   [8]  AF A2 05 00 C4 00 00 00
  can1  303   [4]  B6 00 6C 00
  can1  142   [1]  00
  can1  132   [8]  E8 03 E8 03 E8 03 E8 03
  can1  535   [4]  42 0A 94 00
  can1  142   [1]  00
  can1  132   [8]  E8 03 E8 03 E8 03 E8 03
  can1  142   [1]  00
  can1  132   [8]  E8 03 E8 03 E8 03 E8 03
  can1  107   [5]  01 00 00 00 00
  can1  103   [5]  01 00 00 04 00
  can1  133   [6]  00 00 18 4B 27 0C
  can1  142   [1]  00
  can1  132   [8]  E8 03 E8 03 E8 03 E8 03
  can1  142   [1]  00
  can1  132   [8]  E8 03 E8 03 E8 03 E8 03
  can1  142   [1]  00
  can1  132   [8]  E8 03 E8 03 E8 03 E8 03
  can1  104   [5]  01 00 00 00 00
  can1  132   [8]  E8 03 E8 03 E8 03 E8 03
  can1  142   [1]  00
  can1  234   [6]  00 00 EF 00 F0 00
  can1  102   [5]  01 00 00 00 00
  can1  254   [2]  00 00
  can1  106   [5]  01 00 00 00 00
  can1  105   [5]  01 00 00 00 00
  can1  100   [5]  01 00 00 00 01
  can1  110   [4]  02 00 00 00
  can1  101   [6]  00 00 01 02 00 DD
  can1  130   [1]  01
  can1  132   [8]  00 00 00 00 00 00 00 00
  can1  132   [8]  E8 03 E8 03 E8 03 E8 03
  can1  142   [1]  00
  can1  132   [8]  E8 03 E8 03 E8 03 E8 03
  can1  132   [8]  E8 03 E8 03 E8 03 E8 03
  can1  132   [8]  E8 03 E8 03 E8 03 E8 03
  can1  142   [1]  00
  can1  236   [2]  00 00
  can1  142   [1]  00
  can1  302   [8]  87 F7 FF FF EC F7 FF FF
  can1  132   [8]  E8 03 E8 03 E8 03 E8 03
  can1  142   [1]  00
  can1  301   [8]  74 A3 05 00 89 01 00 00
  can1  142   [1]  00
  can1  303   [4]  B6 00 3C 00
  can1  132   [8]  E8 03 E8 03 E8 03 E8 03
  can1  152   [8]  03 00 00 00 00 00 01 00
  can1  107   [5]  01 00 00 00 00
  can1  103   [5]  01 00 00 04 00
  can1  132   [8]  E8 03 E8 03 E8 03 E8 03
  can1  133   [6]  00 00 17 61 FF 08
  can1  142   [1]  00
  can1  237   [2]  00 00
  can1  132   [8]  E8 03 E8 03 E8 03 E8 03
  can1  142   [1]  00
  can1  534   [4]  D9 5B D8 5C
  can1  142   [1]  00
  can1  544   [6]  12 00 1D 00 05 00
  can1  162   [6]  13 FA 28 FD 4A 40
  can1  132   [8]  E8 03 E8 03 E8 03 E8 03
  can1  142   [1]  00
  can1  132   [8]  E8 03 E8 03 E8 03 E8 03
  can1  104   [5]  01 00 00 00 00
  can1  142   [1]  00
  can1  102   [5]  01 00 00 00 00
  can1  132   [8]  E8 03 E8 03 E8 03 E8 03
  can1  132   [8]  00 00 00 00 00 00 00 00
  can1  152   [8]  09 00 00 00 00 00 01 00
  can1  106   [5]  01 00 00 00 00
  can1  105   [5]  01 00 00 00 00
  can1  132   [8]  E8 03 E8 03 E8 03 E8 03
  can1  142   [1]  00
  can1  100   [5]  01 00 00 00 01
  can1  110   [4]  02 00 00 00
  can1  101   [6]  00 00 01 02 00 DD
  can1  130   [1]  01
  can1  132   [8]  E8 03 E8 03 E8 03 E8 03
  can1  162   [6]  4D FA 4C FD 98 40
  can1  302   [8]  79 F8 FF FF EE F7 FF FF
  can1  142   [1]  00
  can1  301   [8]  FD A4 05 00 89 01 00 00
  can1  142   [1]  00
  can1  303   [4]  B6 00 75 00
  can1  132   [8]  E8 03 E8 03 E8 03 E8 03
  can1  142   [1]  00
  can1  132   [8]  E8 03 E8 03 E8 03 E8 03
  can1  142   [1]  00
  can1  132   [8]  E8 03 E8 03 E8 03 E8 03
  can1  142   [1]  00
  can1  107   [5]  01 00 00 00 00
  can1  103   [5]  01 00 00 04 00
  can1  132   [8]  E8 03 E8 03 E8 03 E8 03
  can1  133   [6]  00 00 1A 55 B1 0C
  can1  142   [1]  00
  can1  132   [8]  E8 03 E8 03 E8 03 E8 03
  can1  142   [1]  00
  can1  132   [8]  E8 03 E8 03 E8 03 E8 03
  can1  142   [1]  00
  can1  132   [8]  E8 03 E8 03 E8 03 E8 03
  can1  104   [5]  01 00 00 00 00
  can1  142   [1]  00
  can1  102   [5]  01 00 00 00 00
  can1  132   [8]  E8 03 E8 03 E8 03 E8 03
  can1  132   [8]  00 00 00 00 00 00 00 00
  can1  152   [8]  FD FF 00 00 00 00 02 00
  can1  106   [5]  01 00 00 00 00
  can1  105   [5]  01 00 00 00 00
  can1  132   [8]  E8 03 E8 03 E8 03 E8 03
  can1  142   [1]  00
  can1  100   [5]  01 00 00 00 01
  can1  110   [4]  02 00 00 00
  can1  130   [1]  01
  can1  132   [8]  E8 03 E8 03 E8 03 E8 03
  can1  162   [6]  3D FA 68 FD 81 40
  can1  200   [6]  06 00 12 00 00 00
  can1  142   [1]  00
  can1  530   [4]  D1 5A 4E 00
  can1  132   [8]  E8 03 E8 03 E8 03 E8 03
  can1  142   [1]  00
  can1  142   [1]  00
  can1  132   [8]  E8 03 E8 03 E8 03 E8 03
  can1  142   [1]  00
  can1  132   [8]  E8 03 E8 03 E8 03 E8 03
  can1  142   [1]  00
  can1  132   [8]  E8 03 E8 03 E8 03 E8 03
  can1  107   [5]  01 00 00 00 00
  can1  103   [5]  01 00 00 04 00
  can1  133   [6]  00 00 19 4D 67 0C
  can1  533   [6]  73 01 E3 00 5F 0C
  can1  101   [6]  00 00 01 02 00 DD
  can1  132   [8]  E8 03 E8 03 E8 03 E8 03
  can1  142   [1]  00
  can1  302   [8]  79 F8 FF FF EE F7 FF FF
  can1  132   [8]  E8 03 E8 03 E8 03 E8 03
  can1  142   [1]  00
  can1  301   [8]  FD A4 05 00 89 01 00 00
  can1  303   [4]  B6 00 75 00
  can1  380   [6]  06 00 16 0F 13 0F
  can1  132   [8]  E8 03 E8 03 E8 03 E8 03
  can1  142   [1]  00
  can1  38A   [6]  01 04 0A 0F 07 0F
  can1  382   [6]  01 02 08 0F 03 0F
  can1  384   [6]  04 00 08 0F 06 0F
  can1  132   [8]  E8 03 E8 03 E8 03 E8 03
  can1  104   [5]  01 00 00 00 00
  can1  142   [1]  00
  can1  102   [5]  01 00 00 00 00
  can1  132   [8]  E8 03 E8 03 E8 03 E8 03
  can1  106   [5]  01 00 00 00 00
  can1  132   [8]  00 00 00 00 00 00 00 00
  can1  105   [5]  01 00 00 00 00
  can1  132   [8]  E8 03 E8 03 E8 03 E8 03
  can1  100   [5]  01 00 00 00 01
  can1  110   [4]  02 00 00 00
  can1  130   [1]  01
  can1  142   [1]  00
  can1  310   [8]  03 0F 16 0F 01 02 00 06
  can1  132   [8]  E8 03 E8 03 E8 03 E8 03
  can1  142   [1]  00
  can1  311   [8]  F2 00 F2 00 07 07 00 02
  can1  142   [1]  00
  can1  528   [7]  00 00 00 00 00 00 00
  can1  152   [8]  06 00 00 00 00 00 01 00
  can1  132   [8]  E8 03 E8 03 E8 03 E8 03
  can1  142   [1]  00
  can1  386   [6]  00 02 0B 0F 0A 0F
  can1  162   [6]  30 FA 40 FD 83 40
  can1  388   [6]  01 08 11 0F F1 0E
  can1  132   [8]  E8 03 E8 03 E8 03 E8 03
  can1  142   [1]  00
  can1  38C   [6]  01 03 07 0F AA 0D
  can1  38E   [6]  05 00 19 0F 15 0F
  can1  543   [4]  95 01 67 0C
  can1  132   [8]  E8 03 E8 03 E8 03 E8 03
  can1  142   [1]  00
  can1  107   [5]  01 00 00 00 00
  can1  103   [5]  01 00 00 04 00
  can1  133   [6]  00 00 19 4D 1E 0C
  can1  101   [6]  00 00 01 02 00 DD
  can1  132   [8]  E8 03 E8 03 E8 03 E8 03
  can1  142   [1]  00
  can1  302   [8]  87 F7 FF FF ED F7 FF FF
  can1  301   [8]  FD A4 05 00 C4 00 00 00
  can1  132   [8]  E8 03 E8 03 E8 03 E8 03
  can1  142   [1]  00
  can1  303   [4]  B6 00 5B 00
  can1  553   [4]  60 59 00 00
  can1  132   [8]  E8 03 E8 03 E8 03 E8 03
  can1  142   [1]  00
  can1  132   [8]  E8 03 E8 03 E8 03 E8 03
  can1  104   [5]  01 00 00 00 00
  can1  142   [1]  00
  can1  102   [5]  01 00 00 00 00
  can1  132   [8]  00 00 00 00 00 00 00 00
  can1  132   [8]  E8 03 E8 03 E8 03 E8 03
  can1  106   [5]  01 00 00 00 00
  can1  152   [8]  F9 FF 00 00 00 00 02 00
  can1  105   [5]  01 00 00 00 00
  can1  142   [1]  00
  can1  132   [8]  E8 03 E8 03 E8 03 E8 03
  can1  100   [5]  01 00 00 00 01
  can1  110   [4]  02 00 00 00
  can1  130   [1]  01
  can1  162   [6]  27 FA 48 FD 57 40
  can1  132   [8]  E8 03 E8 03 E8 03 E8 03
  can1  142   [1]  00
  can1  142   [1]  00
  can1  132   [8]  E8 03 E8 03 E8 03 E8 03
  can1  142   [1]  00
  can1  132   [8]  E8 03 E8 03 E8 03 E8 03
  can1  142   [1]  00
  can1  132   [8]  E8 03 E8 03 E8 03 E8 03
  can1  142   [1]  00
  can1  103   [5]  01 00 00 04 00
  can1  107   [5]  01 00 00 00 00
  can1  132   [8]  E8 03 E8 03 E8 03 E8 03
  can1  101   [6]  00 00 01 02 00 DD
  can1  132   [8]  E8 03 E8 03 E8 03 E8 03
  can1  133   [6]  00 00 18 4B E7 0B
  can1  142   [1]  00
  can1  302   [8]  87 F7 FF FF EC F7 FF FF
  can1  142   [1]  00
  can1  132   [8]  E8 03 E8 03 E8 03 E8 03
  can1  301   [8]  38 A4 05 00 00 00 00 00
  can1  303   [4]  B6 00 70 00
  can1  142   [1]  00
  can1  132   [8]  E8 03 E8 03 E8 03 E8 03
  can1  104   [5]  01 00 00 00 00
  can1  142   [1]  00
  can1  102   [5]  01 00 00 00 00
  can1  132   [8]  E8 03 E8 03 E8 03 E8 03
  can1  106   [5]  01 00 00 00 00
  can1  142   [1]  00
  can1  132   [8]  00 00 00 00 00 00 00 00
  can1  105   [5]  01 00 00 00 00
  can1  132   [8]  E8 03 E8 03 E8 03 E8 03
  can1  100   [5]  01 00 00 00 01
  can1  110   [4]  02 00 00 00
  can1  130   [1]  01
  can1  132   [8]  E8 03 E8 03 E8 03 E8 03
  can1  152   [8]  0A 00 00 00 00 00 00 00
  can1  142   [1]  00
  can1  142   [1]  00
  can1  162   [6]  1B FA 30 FD 8E 40
  can1  132   [8]  E8 03 E8 03 E8 03 E8 03
  can1  142   [1]  00
  can1  132   [8]  E8 03 E8 03 E8 03 E8 03
  can1  142   [1]  00
  can1  132   [8]  E8 03 E8 03 E8 03 E8 03
  can1  142   [1]  00
  can1  107   [5]  01 00 00 00 00
  can1  132   [8]  E8 03 E8 03 E8 03 E8 03
  can1  103   [5]  01 00 00 00 00
  can1  133   [6]  00 00 1A 50 D2 0C
  can1  101   [6]  00 00 01 02 00 DD
  can1  142   [1]  00
  can1  302   [8]  87 F7 FF FF EB F7 FF FF
  can1  132   [8]  E8 03 E8 03 E8 03 E8 03
  can1  301   [8]  38 A4 05 00 C5 00 00 00
  can1  142   [1]  00
  can1  303   [4]  B6 00 7B 00
  can1  132   [8]  E8 03 E8 03 E8 03 E8 03
  can1  142   [1]  00
  can1  132   [8]  E8 03 E8 03 E8 03 E8 03
  can1  104   [5]  01 00 00 00 00
  can1  132   [8]  E8 03 E8 03 E8 03 E8 03
  can1  142   [1]  00
  can1  102   [5]  01 00 00 00 00
  can1  132   [8]  00 00 00 00 00 00 00 00
  can1  152   [8]  FC FF 00 00 00 00 00 00
  can1  106   [5]  01 00 00 00 00
  can1  105   [5]  01 00 00 00 00
  can1  132   [8]  E8 03 E8 03 E8 03 E8 03
  can1  142   [1]  00
  can1  100   [5]  01 00 00 00 01
  can1  110   [4]  02 00 00 00
  can1  130   [1]  01
  can1  132   [8]  E8 03 E8 03 E8 03 E8 03
  can1  142   [1]  00
  can1  162   [6]  76 FA 38 FD 88 40
  can1  132   [8]  E8 03 E8 03 E8 03 E8 03
  can1  142   [1]  00
  can1  132   [8]  E8 03 E8 03 E8 03 E8 03
  can1  142   [1]  00
  can1  132   [8]  E8 03 E8 03 E8 03 E8 03
  can1  142   [1]  00
  can1  132   [8]  E8 03 E8 03 E8 03 E8 03
  can1  142   [1]  00
  can1  107   [5]  01 00 00 00 00
  can1  103   [5]  01 00 00 06 00
  can1  132   [8]  E8 03 E8 03 E8 03 E8 03
  can1  133   [6]  00 00 17 4B FF 09
  can1  101   [6]  00 00 01 02 00 DD
  can1  142   [1]  00
  can1  302   [8]  87 F7 FF FF EA F7 FF FF
  can1  132   [8]  E8 03 E8 03 E8 03 E8 03
  can1  301   [8]  FD A4 05 00 89 01 00 00
  can1  142   [1]  00
  can1  303   [4]  B6 00 7D 00
  can1  132   [8]  E8 03 E8 03 E8 03 E8 03
  can1  142   [1]  00
  can1  132   [8]  E8 03 E8 03 E8 03 E8 03
  can1  104   [5]  01 00 00 00 00
  can1  142   [1]  00
  can1  102   [5]  01 00 00 00 00
  can1  132   [8]  00 00 00 00 00 00 00 00
  can1  132   [8]  E8 03 E8 03 E8 03 E8 03
  can1  106   [5]  01 00 00 00 00
  can1  142   [1]  00
  can1  152   [8]  F9 FF 00 00 00 00 00 00
  can1  105   [5]  01 00 00 00 00
  can1  132   [8]  E8 03 E8 03 E8 03 E8 03
  can1  100   [5]  01 00 00 00 01
  can1  110   [4]  02 00 00 00
  can1  130   [1]  01
  can1  132   [8]  E8 03 E8 03 E8 03 E8 03
  can1  162   [6]  29 FA 28 FD 99 40
  can1  142   [1]  00
  can1  142   [1]  00
  can1  132   [8]  E8 03 E8 03 E8 03 E8 03
  can1  142   [1]  00
  can1  132   [8]  E8 03 E8 03 E8 03 E8 03
  can1  142   [1]  00
  can1  132   [8]  E8 03 E8 03 E8 03 E8 03
  can1  142   [1]  00
  can1  107   [5]  01 00 00 00 00
  can1  132   [8]  E8 03 E8 03 E8 03 E8 03
  can1  103   [5]  01 00 00 04 00
  can1  133   [6]  00 00 19 4E A5 0C
  can1  101   [6]  00 00 01 02 00 DD
  can1  142   [1]  00
  can1  302   [8]  87 F7 FF FF EA F7 FF FF
  can1  132   [8]  E8 03 E8 03 E8 03 E8 03
  can1  301   [8]  FD A4 05 00 00 00 00 00
  can1  142   [1]  00
  can1  303   [4]  B6 00 6D 00
  can1  132   [8]  E8 03 E8 03 E8 03 E8 03
  can1  142   [1]  00
  can1  132   [8]  E8 03 E8 03 E8 03 E8 03
  can1  104   [5]  01 00 00 00 00
  can1  142   [1]  00
  can1  102   [5]  01 00 00 00 00
  can1  132   [8]  E8 03 E8 03 E8 03 E8 03
  can1  132   [8]  00 00 00 00 00 00 00 00
  can1  152   [8]  F9 FF 00 00 00 00 03 00
  can1  106   [5]  01 00 00 00 00
  can1  105   [5]  01 00 00 00 00
  can1  132   [8]  E8 03 E8 03 E8 03 E8 03
  can1  100   [5]  01 00 00 00 01
  can1  110   [4]  02 00 00 00
  can1  130   [1]  01
  can1  132   [8]  E8 03 E8 03 E8 03 E8 03
  can1  142   [1]  00
  can1  142   [1]  00
  can1  162   [6]  30 FA 0C FD 83 40
  can1  132   [8]  E8 03 E8 03 E8 03 E8 03
  can1  142   [1]  00
  can1  132   [8]  E8 03 E8 03 E8 03 E8 03
  can1  142   [1]  00
  can1  142   [1]  00
  can1  132   [8]  E8 03 E8 03 E8 03 E8 03
  can1  142   [1]  00
  can1  132   [8]  E8 03 E8 03 E8 03 E8 03
  can1  103   [5]  01 00 00 06 00
  can1  107   [5]  01 00 00 00 00
  can1  133   [6]  00 00 1A 4C E4 0F
  can1  101   [6]  00 00 01 02 00 DD
  can1  132   [8]  E8 03 E8 03 E8 03 E8 03
  can1  142   [1]  00
  can1  302   [8]  87 F7 FF FF EA F7 FF FF
  can1  132   [8]  E8 03 E8 03 E8 03 E8 03
  can1  142   [1]  00
  can1  301   [8]  74 A3 05 00 00 00 00 00
  can1  303   [4]  B6 00 79 00
  can1  132   [8]  E8 03 E8 03 E8 03 E8 03
  can1  142   [1]  00
  can1  132   [8]  E8 03 E8 03 E8 03 E8 03
  can1  104   [5]  01 00 00 00 00
  can1  142   [1]  00
  can1  102   [5]  01 00 00 00 00
  can1  132   [8]  00 00 00 00 00 00 00 00
  can1  132   [8]  E8 03 E8 03 E8 03 E8 03
  can1  106   [5]  01 00 00 00 00
  can1  152   [8]  FB FF 00 00 00 00 00 00
  can1  105   [5]  01 00 00 00 00
  can1  132   [8]  E8 03 E8 03 E8 03 E8 03
  can1  100   [5]  01 00 00 00 01
  can1  110   [4]  02 00 00 00
  can1  130   [1]  01
  can1  132   [8]  E8 03 E8 03 E8 03 E8 03
  can1  142   [1]  00
  can1  535   [4]  79 0A 7D 00
  can1  142   [1]  00
  can1  142   [1]  00
  can1  162   [6]  38 FA 44 FD 91 40
  can1  132   [8]  E8 03 E8 03 E8 03 E8 03
  can1  142   [1]  00
  can1  132   [8]  E8 03 E8 03 E8 03 E8 03
  can1  142   [1]  00
  can1  132   [8]  E8 03 E8 03 E8 03 E8 03
  can1  142   [1]  00
  can1  103   [5]  01 00 00 00 00
  can1  107   [5]  01 00 00 00 00
  can1  133   [6]  00 00 1B 42 E0 0F
  can1  101   [6]  00 00 01 02 00 DD
  can1  132   [8]  E8 03 E8 03 E8 03 E8 03
  can1  142   [1]  00
  can1  302   [8]  87 F7 FF FF EA F7 FF FF
  can1  301   [8]  74 A3 05 00 00 00 00 00
  can1  132   [8]  E8 03 E8 03 E8 03 E8 03
  can1  142   [1]  00
  can1  303   [4]  B6 00 72 00
  can1  132   [8]  E8 03 E8 03 E8 03 E8 03
  can1  142   [1]  00
  can1  104   [5]  01 00 00 00 00
  can1  142   [1]  00
  can1  234   [6]  00 00 EE 00 F0 00
  can1  102   [5]  01 00 00 00 00
  can1  132   [8]  E8 03 E8 03 E8 03 E8 03
  can1  132   [8]  00 00 00 00 00 00 00 00
  can1  106   [5]  01 00 00 00 00
  can1  142   [1]  00
  can1  105   [5]  01 00 00 00 00
  can1  132   [8]  E8 03 E8 03 E8 03 E8 03
  can1  152   [8]  03 00 00 00 00 00 01 00
  can1  100   [5]  01 00 00 00 01
  can1  110   [4]  02 00 00 00
  can1  130   [1]  01
  can1  132   [8]  E8 03 E8 03 E8 03 E8 03
  can1  142   [1]  00
  can1  236   [2]  00 00
  can1  142   [1]  00
  can1  132   [8]  E8 03 E8 03 E8 03 E8 03
  can1  162   [6]  4B FA 30 FD 7A 40
  can1  254   [2]  00 00
  can1  534   [4]  EB 5B 0D 5D
  can1  544   [6]  13 00 11 00 05 00
  can1  132   [8]  E8 03 E8 03 E8 03 E8 03
  can1  142   [1]  00
  can1  142   [1]  00
  can1  132   [8]  E8 03 E8 03 E8 03 E8 03
  can1  142   [1]  00
  can1  107   [5]  01 00 00 00 00
  can1  132   [8]  E8 03 E8 03 E8 03 E8 03
  can1  103   [5]  01 00 00 04 00
  can1  133   [6]  00 00 18 4A D2 0B
  can1  237   [2]  00 00
  can1  101   [6]  00 00 01 02 00 DD
  can1  132   [8]  E8 03 E8 03 E8 03 E8 03
  can1  142   [1]  00
  can1  302   [8]  87 F7 FF FF EA F7 FF FF
  can1  301   [8]  38 A4 05 00 00 00 00 00
  can1  142   [1]  00
  can1  132   [8]  E8 03 E8 03 E8 03 E8 03
  can1  303   [4]  B6 00 6A 00
  can1  142   [1]  00
  can1  132   [8]  E8 03 E8 03 E8 03 E8 03
  can1  104   [5]  01 00 00 00 00
  can1  132   [8]  E8 03 E8 03 E8 03 E8 03
  can1  142   [1]  00
  can1  102   [5]  01 00 00 00 00
  can1  132   [8]  00 00 00 00 00 00 00 00
  can1  152   [8]  FC FF 00 00 00 00 01 00
  can1  106   [5]  01 00 00 00 00
  can1  105   [5]  01 00 00 00 00
  can1  132   [8]  E8 03 E8 03 E8 03 E8 03
  can1  142   [1]  00
  can1  100   [5]  01 00 00 00 01
  can1  110   [4]  02 00 00 00
  can1  130   [1]  01
  can1  132   [8]  E8 03 E8 03 E8 03 E8 03
  can1  162   [6]  43 FA 28 FD 24 40
  can1  142   [1]  00
  can1  132   [8]  E8 03 E8 03 E8 03 E8 03
  can1  142   [1]  00
  can1  132   [8]  E8 03 E8 03 E8 03 E8 03
  can1  142   [1]  00
  can1  132   [8]  E8 03 E8 03 E8 03 E8 03
  can1  142   [1]  00
  can1  132   [8]  E8 03 E8 03 E8 03 E8 03
  can1  142   [1]  00
  can1  107   [5]  01 00 00 00 00
  can1  103   [5]  01 00 00 00 00
  can1  132   [8]  E8 03 E8 03 E8 03 E8 03
  can1  101   [6]  00 00 01 02 00 DD
  can1  133   [6]  00 00 1C 3B 8A 0F
  can1  142   [1]  00
  can1  302   [8]  87 F7 FF FF EA F7 FF FF
  can1  132   [8]  E8 03 E8 03 E8 03 E8 03
  can1  142   [1]  00
  can1  132   [8]  E8 03 E8 03 E8 03 E8 03
  can1  301   [8]  74 A3 05 00 00 00 00 00
  can1  142   [1]  00
  can1  303   [4]  B6 00 5D 00
  can1  132   [8]  E8 03 E8 03 E8 03 E8 03
  can1  104   [5]  01 00 00 00 00
  can1  142   [1]  00
  can1  102   [5]  01 00 00 00 00
  can1  132   [8]  00 00 00 00 00 00 00 00
  can1  132   [8]  E8 03 E8 03 E8 03 E8 03
  can1  152   [8]  02 00 00 00 00 00 00 00
  can1  106   [5]  01 00 00 00 00
  can1  105   [5]  01 00 00 00 00
  can1  142   [1]  00
  can1  162   [6]  14 FA 34 FD 92 40
  can1  132   [8]  E8 03 E8 03 E8 03 E8 03
  can1  100   [5]  01 00 00 00 01
  can1  110   [4]  02 00 00 00
  can1  130   [1]  01
  can1  142   [1]  00
  can1  200   [6]  06 00 12 00 00 00
  can1  132   [8]  E8 03 E8 03 E8 03 E8 03
  can1  142   [1]  00
  can1  530   [4]  D1 5A 4F 00
  can1  132   [8]  E8 03 E8 03 E8 03 E8 03
  can1  142   [1]  00
  can1  132   [8]  E8 03 E8 03 E8 03 E8 03
  can1  142   [1]  00
  can1  132   [8]  E8 03 E8 03 E8 03 E8 03
  can1  107   [5]  01 00 00 00 00
  can1  142   [1]  00
  can1  103   [5]  01 00 00 04 00
  can1  133   [6]  00 00 19 4D 4B 0C
  can1  132   [8]  E8 03 E8 03 E8 03 E8 03
  can1  142   [1]  00
  can1  533   [6]  72 01 E6 00 79 0C
  can1  543   [4]  95 01 4B 0C
  can1  553   [4]  1A 58 20 00
  can1  132   [8]  E8 03 E8 03 E8 03 E8 03
  can1  142   [1]  00
  can1  132   [8]  E8 03 E8 03 E8 03 E8 03
  can1  142   [1]  00
  can1  132   [8]  E8 03 E8 03 E8 03 E8 03
  can1  104   [5]  01 00 00 00 00
  can1  142   [1]  00
  can1  102   [5]  01 00 00 00 00
  can1  132   [8]  00 00 00 00 00 00 00 00
  can1  132   [8]  E8 03 E8 03 E8 03 E8 03
  can1  152   [8]  FF FF 00 00 00 00 02 00
  can1  106   [5]  01 00 00 00 00
  can1  105   [5]  01 00 00 00 00
  can1  132   [8]  E8 03 E8 03 E8 03 E8 03
  can1  142   [1]  00
  can1  100   [5]  01 00 00 00 01
  can1  110   [4]  02 00 00 00
  can1  101   [6]  00 00 01 02 00 DD
  can1  130   [1]  01
  can1  132   [8]  E8 03 E8 03 E8 03 E8 03
  can1  162   [6]  46 FA 3C FD 66 40
  can1  302   [8]  87 F7 FF FF EB F7 FF FF
  can1  142   [1]  00
  can1  301   [8]  38 A4 05 00 00 00 00 00
  can1  132   [8]  E8 03 E8 03 E8 03 E8 03
  can1  142   [1]  00
  can1  380   [6]  06 00 16 0F 13 0F
  can1  142   [1]  00
  can1  382   [6]  0A 02 09 0F 03 0F
  can1  388   [6]  01 08 11 0F F1 0E
  can1  132   [8]  E8 03 E8 03 E8 03 E8 03
  can1  303   [4]  B6 00 77 00
  can1  142   [1]  00
  can1  310   [8]  03 0F 16 0F 01 02 00 06
  can1  311   [8]  F2 00 F2 00 07 07 00 02
  can1  132   [8]  E8 03 E8 03 E8 03 E8 03
  can1  528   [7]  00 00 00 00 00 00 00
  can1  107   [5]  01 00 00 00 00
  can1  142   [1]  00
  can1  103   [5]  01 00 00 04 00
  can1  132   [8]  E8 03 E8 03 E8 03 E8 03
  can1  133   [6]  00 00 19 4D 2F 0C
  can1  142   [1]  00
  can1  132   [8]  E8 03 E8 03 E8 03 E8 03
  can1  384   [6]  04 00 08 0F 06 0F
  can1  386   [6]  00 02 0B 0F 0A 0F
  can1  142   [1]  00
  can1  132   [8]  E8 03 E8 03 E8 03 E8 03
  can1  38A   [6]  01 04 0A 0F 07 0F
  can1  38C   [6]  01 03 07 0F AA 0D
  can1  38E   [6]  05 00 19 0F 15 0F
  can1  142   [1]  00
  can1  132   [8]  E8 03 E8 03 E8 03 E8 03
  can1  104   [5]  01 00 00 00 00
  can1  132   [8]  E8 03 E8 03 E8 03 E8 03
  can1  142   [1]  00
  can1  102   [5]  01 00 00 00 00
  can1  132   [8]  00 00 00 00 00 00 00 00
  can1  152   [8]  FF FF 00 00 00 00 01 00
  can1  106   [5]  01 00 00 00 00
  can1  105   [5]  01 00 00 00 00
  can1  132   [8]  E8 03 E8 03 E8 03 E8 03
  can1  142   [1]  00
  can1  100   [5]  01 00 00 00 01
  can1  110   [4]  02 00 00 00
  can1  101   [6]  00 00 01 02 00 DD
  can1  130   [1]  01
  can1  132   [8]  E8 03 E8 03 E8 03 E8 03
  can1  162   [6]  30 FA 4C FD 5F 40
  can1  302   [8]  87 F7 FF FF EA F7 FF FF
  can1  142   [1]  00
  can1  132   [8]  E8 03 E8 03 E8 03 E8 03
  can1  142   [1]  00
  can1  301   [8]  74 A3 05 00 00 00 00 00
  can1  142   [1]  00
  can1  132   [8]  E8 03 E8 03 E8 03 E8 03
  can1  303   [4]  B6 00 76 00
  can1  142   [1]  00
  can1  132   [8]  E8 03 E8 03 E8 03 E8 03
  can1  142   [1]  00
  can1  107   [5]  01 00 00 00 00
  can1  132   [8]  E8 03 E8 03 E8 03 E8 03
  can1  103   [5]  01 00 00 04 00
  can1  133   [6]  00 00 18 4A 2E 0C
  can1  142   [1]  00
  can1  132   [8]  E8 03 E8 03 E8 03 E8 03
  can1  142   [1]  00
  can1  132   [8]  E8 03 E8 03 E8 03 E8 03
  can1  142   [1]  00
  can1  132   [8]  E8 03 E8 03 E8 03 E8 03
  can1  104   [5]  01 00 00 00 00
  can1  132   [8]  E8 03 E8 03 E8 03 E8 03
  can1  142   [1]  00
  can1  102   [5]  01 00 00 00 00
  can1  132   [8]  00 00 00 00 00 00 00 00
  can1  132   [8]  E8 03 E8 03 E8 03 E8 03
  can1  106   [5]  01 00 00 00 00
  can1  152   [8]  00 00 00 00 00 00 01 00
  can1  105   [5]  01 00 00 00 00
  can1  132   [8]  E8 03 E8 03 E8 03 E8 03
  can1  100   [5]  01 00 00 00 01
  can1  101   [6]  00 00 01 02 00 DD
  can1  110   [4]  02 00 00 00
  can1  130   [1]  01
  can1  142   [1]  00
  can1  132   [8]  E8 03 E8 03 E8 03 E8 03
  can1  142   [1]  00
  can1  302   [8]  87 F7 FF FF EA F7 FF FF
  can1  142   [1]  00
  can1  301   [8]  38 A4 05 00 C5 00 00 00
  can1  132   [8]  E8 03 E8 03 E8 03 E8 03
  can1  162   [6]  4D FA 24 FD 75 40
  can1  303   [4]  B6 00 63 00
  can1  142   [1]  00
  can1  132   [8]  E8 03 E8 03 E8 03 E8 03
  can1  142   [1]  00
  can1  132   [8]  E8 03 E8 03 E8 03 E8 03
  can1  142   [1]  00
  can1  107   [5]  01 00 00 00 00
  can1  103   [5]  01 00 00 00 00
  can1  132   [8]  E8 03 E8 03 E8 03 E8 03
  can1  133   [6]  00 00 1A 50 DB 0C
  can1  142   [1]  00
  can1  132   [8]  E8 03 E8 03 E8 03 E8 03
  can1  142   [1]  00
  can1  132   [8]  E8 03 E8 03 E8 03 E8 03
  can1  142   [1]  00
  can1  132   [8]  E8 03 E8 03 E8 03 E8 03
  can1  104   [5]  01 00 00 00 00
  can1  142   [1]  00
  can1  132   [8]  E8 03 E8 03 E8 03 E8 03
  can1  102   [5]  01 00 00 00 00
  can1  106   [5]  01 00 00 00 00
  can1  142   [1]  00
  can1  132   [8]  00 00 00 00 00 00 00 00
  can1  105   [5]  01 00 00 00 00
  can1  132   [8]  E8 03 E8 03 E8 03 E8 03
  can1  100   [5]  01 00 00 00 01
  can1  110   [4]  02 00 00 00
  can1  101   [6]  00 00 01 02 00 DD
  can1  130   [1]  01
  can1  132   [8]  E8 03 E8 03 E8 03 E8 03
  can1  152   [8]  00 00 00 00 00 00 01 00
  can1  302   [8]  87 F7 FF FF EA F7 FF FF
  can1  132   [8]  E8 03 E8 03 E8 03 E8 03
  can1  142   [1]  00
  can1  301   [8]  38 A4 05 00 89 01 00 00
  can1  142   [1]  00
  can1  303   [4]  B6 00 6C 00
  can1  132   [8]  E8 03 E8 03 E8 03 E8 03
  can1  142   [1]  00
  can1  162   [6]  24 FA 68 FD 73 40
  can1  142   [1]  00
  can1  132   [8]  E8 03 E8 03 E8 03 E8 03
  can1  142   [1]  00
  can1  107   [5]  01 00 00 00 00
  can1  132   [8]  E8 03 E8 03 E8 03 E8 03
  can1  103   [5]  01 00 00 00 00
  can1  133   [6]  00 00 1A 50 DC 0C
  can1  142   [1]  00
  can1  132   [8]  E8 03 E8 03 E8 03 E8 03
  can1  142   [1]  00
  can1  132   [8]  E8 03 E8 03 E8 03 E8 03
  can1  142   [1]  00
  can1  132   [8]  E8 03 E8 03 E8 03 E8 03
  can1  104   [5]  01 00 00 00 00
  can1  132   [8]  E8 03 E8 03 E8 03 E8 03
  can1  142   [1]  00
  can1  102   [5]  01 00 00 00 00
  can1  132   [8]  00 00 00 00 00 00 00 00
  can1  132   [8]  E8 03 E8 03 E8 03 E8 03
  can1  106   [5]  01 00 00 00 00
  can1  152   [8]  00 00 00 00 00 00 02 00
  can1  105   [5]  01 00 00 00 00
  can1  132   [8]  E8 03 E8 03 E8 03 E8 03
  can1  100   [5]  01 00 00 00 01
  can1  101   [6]  00 00 01 02 00 DD
  can1  110   [4]  02 00 00 00
  can1  130   [1]  01
  can1  142   [1]  00
  can1  132   [8]  E8 03 E8 03 E8 03 E8 03
  can1  142   [1]  00
  can1  302   [8]  79 F8 FF FF EC F7 FF FF
  can1  142   [1]  00
  can1  301   [8]  74 A3 05 00 C4 00 00 00
  can1  132   [8]  E8 03 E8 03 E8 03 E8 03
  can1  162   [6]  46 FA 58 FD 8A 40
  can1  303   [4]  B6 00 36 00
  can1  142   [1]  00
  can1  132   [8]  E8 03 E8 03 E8 03 E8 03
  can1  142   [1]  00
  can1  132   [8]  E8 03 E8 03 E8 03 E8 03
  can1  142   [1]  00
  can1  103   [5]  01 00 00 00 00
  can1  107   [5]  01 00 00 00 00
  can1  132   [8]  E8 03 E8 03 E8 03 E8 03
  can1  133   [6]  00 00 1A 50 DD 0C
  can1  132   [8]  E8 03 E8 03 E8 03 E8 03
  can1  142   [1]  00
  can1  142   [1]  00
  can1  132   [8]  E8 03 E8 03 E8 03 E8 03
  can1  142   [1]  00
  can1  132   [8]  E8 03 E8 03 E8 03 E8 03
  can1  104   [5]  01 00 00 00 00
  can1  142   [1]  00
  can1  132   [8]  E8 03 E8 03 E8 03 E8 03
  can1  102   [5]  01 00 00 00 00
  can1  132   [8]  00 00 00 00 00 00 00 00
  can1  152   [8]  F1 FF 00 00 00 00 03 00
  can1  106   [5]  01 00 00 00 00
  can1  132   [8]  E8 03 E8 03 E8 03 E8 03
  can1  105   [5]  01 00 00 00 00
  can1  142   [1]  00
  can1  100   [5]  01 00 00 00 01
  can1  110   [4]  02 00 00 00
  can1  101   [6]  00 00 01 02 00 DD
  can1  130   [1]  01
  can1  132   [8]  E8 03 E8 03 E8 03 E8 03
  can1  162   [6]  5D FA 44 FD 95 40
  can1  132   [8]  E8 03 E8 03 E8 03 E8 03
  can1  142   [1]  00
  can1  302   [8]  87 F7 FF FF EB F7 FF FF
  can1  142   [1]  00
  can1  301   [8]  38 A4 05 00 4D 02 00 00
  can1  132   [8]  E8 03 E8 03 E8 03 E8 03
  can1  142   [1]  00
  can1  303   [4]  B6 00 5C 00
  can1  132   [8]  E8 03 E8 03 E8 03 E8 03
  can1  142   [1]  00
  can1  142   [1]  00
  can1  132   [8]  E8 03 E8 03 E8 03 E8 03
  can1  103   [5]  01 00 00 00 00
  can1  133   [6]  00 00 1A 5F FF 0B
  can1  132   [8]  E8 03 E8 03 E8 03 E8 03
  can1  142   [1]  00
  can1  132   [8]  E8 03 E8 03 E8 03 E8 03
  can1  107   [5]  01 00 00 00 00
  can1  142   [1]  00
  can1  132   [8]  E8 03 E8 03 E8 03 E8 03
  can1  142   [1]  00
  can1  132   [8]  E8 03 E8 03 E8 03 E8 03
  can1  104   [5]  01 00 00 00 00
  can1  142   [1]  00
  can1  102   [5]  01 00 00 00 00
  can1  132   [8]  00 00 00 00 00 00 00 00
  can1  132   [8]  E8 03 E8 03 E8 03 E8 03
  can1  106   [5]  01 00 00 00 00
  can1  152   [8]  FB FF 00 00 00 00 01 00
  can1  105   [5]  01 00 00 00 00
  can1  132   [8]  E8 03 E8 03 E8 03 E8 03
  can1  100   [5]  01 00 00 00 01
  can1  101   [6]  00 00 01 02 00 DD
  can1  110   [4]  02 00 00 00
  can1  130   [1]  01
  can1  132   [8]  E8 03 E8 03 E8 03 E8 03
  can1  142   [1]  00
  can1  302   [8]  87 F7 FF FF EA F7 FF FF
  can1  142   [1]  00
  can1  301   [8]  AF A2 05 00 89 01 00 00
  can1  142   [1]  00
  can1  303   [4]  B6 00 5B 00
  can1  132   [8]  E8 03 E8 03 E8 03 E8 03
  can1  162   [6]  56 FA 40 FD 63 40
  can1  535   [4]  50 0A 94 00
  can1  142   [1]  00
  can1  132   [8]  E8 03 E8 03 E8 03 E8 03
  can1  142   [1]  00
  can1  132   [8]  E8 03 E8 03 E8 03 E8 03
  can1  142   [1]  00
  can1  103   [5]  01 00 00 04 00
  can1  107   [5]  01 00 00 00 00
  can1  132   [8]  E8 03 E8 03 E8 03 E8 03
  can1  133   [6]  00 00 1A 53 D9 0C
  can1  142   [1]  00
  can1  132   [8]  E8 03 E8 03 E8 03 E8 03
  can1  142   [1]  00
  can1  132   [8]  E8 03 E8 03 E8 03 E8 03
  can1  142   [1]  00
  can1  132   [8]  E8 03 E8 03 E8 03 E8 03
  can1  104   [5]  01 00 00 00 00
  can1  142   [1]  00
  can1  234   [6]  00 00 EF 00 EF 00
  can1  132   [8]  E8 03 E8 03 E8 03 E8 03
  can1  254   [2]  00 00
  can1  534   [4]  FC 5B EA 5C
  can1  106   [5]  01 00 00 00 00
  can1  102   [5]  01 00 00 00 00
  can1  236   [2]  00 00
  can1  105   [5]  01 00 00 00 00
  can1  132   [8]  E8 03 E8 03 E8 03 E8 03
  can1  100   [5]  01 00 00 00 01
  can1  110   [4]  02 00 00 00
  can1  101   [6]  00 00 01 02 00 DD
  can1  130   [1]  01
  can1  132   [8]  E8 03 E8 03 E8 03 E8 03
  can1  142   [1]  00
  can1  302   [8]  87 F7 FF FF EA F7 FF FF
  can1  132   [8]  E8 03 E8 03 E8 03 E8 03
  can1  142   [1]  00
  can1  301   [8]  FD A4 05 00 89 01 00 00
  can1  142   [1]  00
  can1  303   [4]  B6 00 74 00
  can1  132   [8]  00 00 00 00 00 00 00 00
  can1  132   [8]  E8 03 E8 03 E8 03 E8 03
  can1  142   [1]  00
  can1  544   [6]  0F 00 20 00 05 00
  can1  152   [8]  FC FF 00 00 00 00 02 00
  can1  132   [8]  E8 03 E8 03 E8 03 E8 03
  can1  142   [1]  00
  can1  162   [6]  F0 F9 64 FD 92 40
  can1  132   [8]  E8 03 E8 03 E8 03 E8 03
  can1  142   [1]  00
  can1  103   [5]  01 00 00 00 00
  can1  107   [5]  01 00 00 00 00
  can1  133   [6]  00 00 1A 50 E2 0C
  can1  132   [8]  E8 03 E8 03 E8 03 E8 03
  can1  142   [1]  00
  can1  237   [2]  00 00
  can1  142   [1]  00
  can1  132   [8]  E8 03 E8 03 E8 03 E8 03
  can1  142   [1]  00
  can1  132   [8]  E8 03 E8 03 E8 03 E8 03
  can1  104   [5]  01 00 00 00 00
  can1  142   [1]  00
  can1  102   [5]  01 00 00 00 00
  can1  132   [8]  E8 03 E8 03 E8 03 E8 03
  can1  132   [8]  00 00 00 00 00 00 00 00
  can1  152   [8]  FC FF 00 00 00 00 02 00
  can1  105   [5]  01 00 00 00 00
  can1  106   [5]  01 00 00 00 00
  can1  100   [5]  01 00 00 00 01
  can1  110   [4]  02 00 00 00
  can1  101   [6]  00 00 01 02 00 DD
  can1  130   [1]  01
  can1  132   [8]  E8 03 E8 03 E8 03 E8 03
  can1  132   [8]  E8 03 E8 03 E8 03 E8 03
  can1  142   [1]  00
  can1  132   [8]  E8 03 E8 03 E8 03 E8 03
  can1  142   [1]  00
  can1  302   [8]  87 F7 FF FF EA F7 FF FF
  can1  142   [1]  00
  can1  301   [8]  FD A4 05 00 12 03 00 00
  can1  132   [8]  E8 03 E8 03 E8 03 E8 03
  can1  162   [6]  12 FA 4C FD 85 40
  can1  303   [4]  B6 00 66 00
  can1  142   [1]  00
  can1  132   [8]  E8 03 E8 03 E8 03 E8 03
  can1  142   [1]  00
  can1  132   [8]  E8 03 E8 03 E8 03 E8 03
  can1  107   [5]  01 00 00 00 00
  can1  142   [1]  00
  can1  103   [5]  01 00 00 00 00
  can1  133   [6]  00 00 1A 50 E7 0C
  can1  132   [8]  E8 03 E8 03 E8 03 E8 03
  can1  142   [1]  00
  can1  132   [8]  E8 03 E8 03 E8 03 E8 03
  can1  142   [1]  00
  can1  132   [8]  E8 03 E8 03 E8 03 E8 03
  can1  142   [1]  00
  can1  132   [8]  E8 03 E8 03 E8 03 E8 03
  can1  104   [5]  01 00 00 00 00
  can1  142   [1]  00
  can1  102   [5]  01 00 00 00 00
  can1  132   [8]  00 00 00 00 00 00 00 00
  can1  132   [8]  E8 03 E8 03 E8 03 E8 03
  can1  152   [8]  05 00 00 00 00 00 01 00
  can1  106   [5]  01 00 00 00 00
  can1  105   [5]  01 00 00 00 00
  can1  132   [8]  E8 03 E8 03 E8 03 E8 03
  can1  142   [1]  00
  can1  100   [5]  01 00 00 00 01
  can1  110   [4]  02 00 00 00
  can1  101   [6]  00 00 01 02 00 DD
  can1  130   [1]  01
  can1  132   [8]  E8 03 E8 03 E8 03 E8 03
  can1  162   [6]  2F FA 40 FD 18 40
  can1  200   [6]  05 00 12 00 00 00
  can1  142   [1]  00
  can1  132   [8]  E8 03 E8 03 E8 03 E8 03
  can1  142   [1]  00
  can1  302   [8]  87 F7 FF FF EA F7 FF FF
  can1  301   [8]  74 A3 05 00 89 01 00 00
  can1  132   [8]  E8 03 E8 03 E8 03 E8 03
  can1  142   [1]  00
  can1  303   [4]  B6 00 63 00
  can1  530   [4]  A5 5A 4B 00
  can1  142   [1]  00
  can1  132   [8]  E8 03 E8 03 E8 03 E8 03
  can1  142   [1]  00
  can1  132   [8]  E8 03 E8 03 E8 03 E8 03
  can1  107   [5]  01 00 00 00 00
  can1  103   [5]  01 00 00 00 00
  can1  133   [6]  00 00 16 4C FF 08
  can1  533   [6]  01 01 ED 00 50 0C
  can1  132   [8]  E8 03 E8 03 E8 03 E8 03
  can1  142   [1]  00
  can1  543   [4]  63 01 FF 08
  can1  553   [4]  64 5F 1C 00
  can1  132   [8]  E8 03 E8 03 E8 03 E8 03
  can1  142   [1]  00
  can1  142   [1]  00
  can1  132   [8]  E8 03 E8 03 E8 03 E8 03
  can1  104   [5]  01 00 00 00 00
  can1  142   [1]  00
  can1  102   [5]  01 00 00 00 00
  can1  132   [8]  E8 03 E8 03 E8 03 E8 03
  can1  132   [8]  00 00 00 00 00 00 00 00
  can1  152   [8]  F8 FF 00 00 00 00 01 00
  can1  106   [5]  01 00 00 00 00
  can1  132   [8]  E8 03 E8 03 E8 03 E8 03
  can1  105   [5]  01 00 00 00 00
  can1  142   [1]  00
  can1  100   [5]  01 00 00 00 01
  can1  110   [4]  02 00 00 00
  can1  130   [1]  01
  can1  132   [8]  E8 03 E8 03 E8 03 E8 03
  can1  162   [6]  29 FA 24 FD 63 40
  can1  142   [1]  00
  can1  142   [1]  00
  can1  132   [8]  E8 03 E8 03 E8 03 E8 03
  can1  142   [1]  00
  can1  132   [8]  E8 03 E8 03 E8 03 E8 03
  can1  132   [8]  E8 03 E8 03 E8 03 E8 03
  can1  142   [1]  00
  can1  132   [8]  E8 03 E8 03 E8 03 E8 03
  can1  142   [1]  00
  can1  107   [5]  01 00 00 00 00
  can1  103   [5]  01 00 00 04 00
  can1  133   [6]  00 00 17 49 BF 0B
  can1  132   [8]  E8 03 E8 03 E8 03 E8 03
  can1  142   [1]  00
  can1  101   [6]  00 00 01 02 00 DD
  can1  302   [8]  87 F7 FF FF EA F7 FF FF
  can1  301   [8]  74 A3 05 00 89 01 00 00
  can1  132   [8]  E8 03 E8 03 E8 03 E8 03
  can1  142   [1]  00
  can1  303   [4]  B6 00 63 00
  can1  380   [6]  06 00 16 0F 13 0F
  can1  132   [8]  E8 03 E8 03 E8 03 E8 03
  can1  388   [6]  01 08 11 0F F1 0E
  can1  142   [1]  00
  can1  382   [6]  0A 02 09 0F 03 0F
  can1  384   [6]  02 01 08 0F 05 0F
  can1  132   [8]  E8 03 E8 03 E8 03 E8 03
  can1  386   [6]  00 02 0B 0F 0A 0F
  can1  104   [5]  01 00 00 00 00
  can1  142   [1]  00
  can1  132   [8]  E8 03 E8 03 E8 03 E8 03
  can1  102   [5]  01 00 00 00 00
  can1  310   [8]  03 0F 16 0F 01 02 00 06
  can1  106   [5]  01 00 00 00 00
  can1  105   [5]  01 00 00 00 00
  can1  100   [5]  01 00 00 00 01
  can1  110   [4]  02 00 00 00
  can1  130   [1]  01
  can1  311   [8]  F2 00 F2 00 07 07 00 02
  can1  142   [1]  00
  can1  152   [8]  05 00 00 00 00 00 02 00
  can1  132   [8]  E8 03 E8 03 E8 03 E8 03
  can1  132   [8]  E8 03 E8 03 E8 03 E8 03
  can1  162   [6]  52 FA 70 FD 65 40
  can1  107   [5]  01 00 00 00 00
  can1  103   [5]  01 00 00 04 00
  can1  132   [8]  E8 03 E8 03 E8 03 E8 03
  can1  133   [6]  00 00 17 3F 57 0D
  can1  101   [6]  00 00 01 02 00 DD
  can1  132   [8]  E8 03 E8 03 E8 03 E8 03
  can1  142   [1]  00
  can1  132   [8]  E8 03 E8 03 E8 03 E8 03
  can1  142   [1]  00
  can1  132   [8]  E8 03 E8 03 E8 03 E8 03
  can1  142   [1]  00
  can1  132   [8]  E8 03 E8 03 E8 03 E8 03
  can1  302   [8]  79 F8 FF FF EC F7 FF FF
  can1  132   [8]  E8 03 E8 03 E8 03 E8 03
  can1  142   [1]  00
  can1  132   [8]  E8 03 E8 03 E8 03 E8 03
  can1  301   [8]  FD A4 05 00 C4 00 00 00
  can1  303   [4]  B6 00 58 00
  can1  104   [5]  01 00 00 00 00
  can1  142   [1]  00
  can1  102   [5]  01 00 00 00 00
  can1  132   [8]  E8 03 E8 03 E8 03 E8 03
  can1  132   [8]  00 00 00 00 00 00 00 00
  can1  106   [5]  01 00 00 00 00
  can1  142   [1]  00
  can1  132   [8]  E8 03 E8 03 E8 03 E8 03
  can1  105   [5]  01 00 00 00 00
  can1  152   [8]  FB FF 00 00 00 00 01 00
  can1  100   [5]  01 00 00 00 01
  can1  110   [4]  02 00 00 00
  can1  130   [1]  01
  can1  132   [8]  E8 03 E8 03 E8 03 E8 03
  can1  162   [6]  4B FA 38 FD 33 40
  can1  142   [1]  00
  can1  142   [1]  00
  can1  132   [8]  E8 03 E8 03 E8 03 E8 03
  can1  142   [1]  00
  can1  132   [8]  E8 03 E8 03 E8 03 E8 03
  can1  142   [1]  00
  can1  132   [8]  E8 03 E8 03 E8 03 E8 03
  can1  142   [1]  00
  can1  132   [8]  E8 03 E8 03 E8 03 E8 03
  can1  101   [6]  00 00 01 02 00 DD
  can1  132   [8]  E8 03 E8 03 E8 03 E8 03
  can1  142   [1]  00
  can1  302   [8]  87 F7 FF FF EB F7 FF FF
  can1  301   [8]  FD A4 05 00 89 01 00 00
  can1  132   [8]  E8 03 E8 03 E8 03 E8 03
  can1  142   [1]  00
  can1  303   [4]  B6 00 3A 00
  can1  132   [8]  E8 03 E8 03 E8 03 E8 03
  can1  142   [1]  00
  can1  132   [8]  E8 03 E8 03 E8 03 E8 03
  can1  104   [5]  01 00 00 00 00
  can1  142   [1]  00
  can1  102   [5]  01 00 00 00 00
  can1  132   [8]  00 00 00 00 00 00 00 00
  can1  132   [8]  E8 03 E8 03 E8 03 E8 03
  can1  106   [5]  01 00 00 00 00
  can1  152   [8]  01 00 00 00 00 00 01 00
  can1  105   [5]  01 00 00 00 00
  can1  132   [8]  E8 03 E8 03 E8 03 E8 03
  can1  142   [1]  00
  can1  100   [5]  01 00 00 00 01
  can1  110   [4]  02 00 00 00
  can1  130   [1]  01
  can1  142   [1]  00
  can1  132   [8]  E8 03 E8 03 E8 03 E8 03
  can1  142   [1]  00
  can1  162   [6]  27 FA 4C FD 8C 40
  can1  132   [8]  E8 03 E8 03 E8 03 E8 03
  can1  142   [1]  00
  can1  132   [8]  E8 03 E8 03 E8 03 E8 03
  can1  142   [1]  00
  can1  132   [8]  E8 03 E8 03 E8 03 E8 03
  can1  142   [1]  00
  can1  103   [5]  01 00 00 00 00
  can1  133   [6]  00 00 1A 50 E5 0C
  can1  132   [8]  E8 03 E8 03 E8 03 E8 03
  can1  101   [6]  00 00 01 02 00 DD
  can1  142   [1]  00
  can1  302   [8]  87 F7 FF FF EA F7 FF FF
  can1  132   [8]  E8 03 E8 03 E8 03 E8 03
  can1  301   [8]  FD A4 05 00 C5 00 00 00
  can1  142   [1]  00
  can1  303   [4]  B6 00 69 00
  can1  132   [8]  E8 03 E8 03 E8 03 E8 03
  can1  142   [1]  00
  can1  132   [8]  E8 03 E8 03 E8 03 E8 03
  can1  104   [5]  01 00 00 00 00
  can1  142   [1]  00
  can1  102   [5]  01 00 00 00 00
  can1  132   [8]  E8 03 E8 03 E8 03 E8 03
  can1  132   [8]  00 00 00 00 00 00 00 00
  can1  152   [8]  FE FF 00 00 00 00 01 00
  can1  100   [5]  01 00 00 00 01
  can1  110   [4]  02 00 00 00
  can1  130   [1]  01
  can1  142   [1]  00
  can1  142   [1]  00
  can1  142   [1]  00
  can1  132   [8]  E8 03 E8 03 E8 03 E8 03
  can1  132   [8]  E8 03 E8 03 E8 03 E8 03
  can1  132   [8]  E8 03 E8 03 E8 03 E8 03
  can1  132   [8]  E8 03 E8 03 E8 03 E8 03
  can1  142   [1]  00
  can1  132   [8]  E8 03 E8 03 E8 03 E8 03
  can1  142   [1]  00
  can1  103   [5]  01 00 00 04 00
  can1  133   [6]  00 00 19 4F A3 0C
  can1  101   [6]  00 00 01 02 00 DD
  can1  142   [1]  00
  can1  302   [8]  87 F7 FF FF EA F7 FF FF
  can1  301   [8]  FD A4 05 00 00 00 00 00
  can1  142   [1]  00
  can1  303   [4]  B6 00 57 00
  can1  142   [1]  00
  can1  132   [8]  E8 03 E8 03 E8 03 E8 03
  can1  132   [8]  E8 03 E8 03 E8 03 E8 03
  can1  132   [8]  E8 03 E8 03 E8 03 E8 03
  can1  132   [8]  E8 03 E8 03 E8 03 E8 03
  can1  132   [8]  E8 03 E8 03 E8 03 E8 03
  can1  104   [5]  01 00 00 00 00
  can1  142   [1]  00
  can1  102   [5]  01 00 00 00 00
  can1  132   [8]  00 00 00 00 00 00 00 00
  can1  132   [8]  E8 03 E8 03 E8 03 E8 03
  can1  106   [5]  01 00 00 00 00
  can1  152   [8]  F7 FF 00 00 00 00 01 00
  can1  105   [5]  01 00 00 00 00
  can1  142   [1]  00
  can1  132   [8]  E8 03 E8 03 E8 03 E8 03
  can1  100   [5]  01 00 00 00 01
  can1  110   [4]  02 00 00 00
  can1  130   [1]  01
  can1  162   [6]  37 FA 5C FD 6E 40
  can1  132   [8]  E8 03 E8 03 E8 03 E8 03
  can1  142   [1]  00
  can1  142   [1]  00
  can1  132   [8]  E8 03 E8 03 E8 03 E8 03
  can1  142   [1]  00
  can1  132   [8]  E8 03 E8 03 E8 03 E8 03
  can1  142   [1]  00
  can1  132   [8]  E8 03 E8 03 E8 03 E8 03
  can1  142   [1]  00
  can1  107   [5]  01 00 00 00 00
  can1  103   [5]  01 00 00 04 00
  can1  132   [8]  E8 03 E8 03 E8 03 E8 03
  can1  142   [1]  00
  can1  104   [5]  01 00 00 00 00
  can1  142   [1]  00
  can1  102   [5]  01 00 00 00 00
  can1  132   [8]  E8 03 E8 03 E8 03 E8 03
  can1  132   [8]  E8 03 E8 03 E8 03 E8 03
  can1  132   [8]  E8 03 E8 03 E8 03 E8 03
  can1  132   [8]  E8 03 E8 03 E8 03 E8 03
  can1  132   [8]  00 00 00 00 00 00 00 00
  can1  152   [8]  FF FF 00 00 00 00 02 00
  can1  106   [5]  01 00 00 00 00
  can1  132   [8]  E8 03 E8 03 E8 03 E8 03
  can1  105   [5]  01 00 00 00 00
  can1  142   [1]  00
  can1  100   [5]  01 00 00 00 01
  can1  110   [4]  02 00 00 00
  can1  130   [1]  01
  can1  132   [8]  E8 03 E8 03 E8 03 E8 03
  can1  162   [6]  76 FA 38 FD 41 40
  can1  535   [4]  4D 0A 7E 00
  can1  142   [1]  00
  can1  142   [1]  00
  can1  132   [8]  E8 03 E8 03 E8 03 E8 03
  can1  142   [1]  00
  can1  132   [8]  E8 03 E8 03 E8 03 E8 03
  can1  142   [1]  00
  can1  132   [8]  E8 03 E8 03 E8 03 E8 03
  can1  132   [8]  E8 03 E8 03 E8 03 E8 03
  can1  107   [5]  01 00 00 00 00
  can1  142   [1]  00
  can1  103   [5]  01 00 00 04 00
  can1  133   [6]  00 00 19 4F 84 0C
  can1  132   [8]  E8 03 E8 03 E8 03 E8 03
  can1  101   [6]  00 00 01 02 00 DD
  can1  142   [1]  00
  can1  302   [8]  87 F7 FF FF EA F7 FF FF
  can1  301   [8]  AF A2 05 00 4E 02 00 00
  can1  132   [8]  E8 03 E8 03 E8 03 E8 03
  can1  142   [1]  00
  can1  303   [4]  B6 00 6E 00
  can1  132   [8]  E8 03 E8 03 E8 03 E8 03
  can1  142   [1]  00
  can1  132   [8]  E8 03 E8 03 E8 03 E8 03
  can1  104   [5]  01 00 00 00 00
  can1  142   [1]  00
  can1  234   [6]  00 00 EE 00 EF 00
  can1  102   [5]  01 00 00 00 00
  can1  132   [8]  E8 03 E8 03 E8 03 E8 03
  can1  132   [8]  00 00 00 00 00 00 00 00
  can1  106   [5]  01 00 00 00 00
  can1  142   [1]  00
  can1  105   [5]  01 00 00 00 00
  can1  132   [8]  E8 03 E8 03 E8 03 E8 03
  can1  152   [8]  00 00 00 00 00 00 03 00
  can1  100   [5]  01 00 00 00 01
  can1  110   [4]  02 00 00 00
  can1  130   [1]  01
  can1  132   [8]  E8 03 E8 03 E8 03 E8 03
  can1  142   [1]  00
  can1  236   [2]  00 00
  can1  142   [1]  00
  can1  254   [2]  00 00
  can1  132   [8]  E8 03 E8 03 E8 03 E8 03
  can1  162   [6]  31 FA 2C FD A7 40
  can1  534   [4]  FC 5B 04 5D
  can1  544   [6]  15 00 13 00 05 00
  can1  142   [1]  00
  can1  132   [8]  E8 03 E8 03 E8 03 E8 03
  can1  142   [1]  00
  can1  132   [8]  E8 03 E8 03 E8 03 E8 03
  can1  142   [1]  00
  can1  107   [5]  01 00 00 00 00
  can1  132   [8]  E8 03 E8 03 E8 03 E8 03
  can1  103   [5]  01 00 00 04 00
  can1  133   [6]  00 00 18 4D 1D 0C
  can1  101   [6]  00 00 01 02 00 DD
  can1  132   [8]  E8 03 E8 03 E8 03 E8 03
  can1  142   [1]  00
  can1  237   [2]  00 00
  can1  302   [8]  79 F8 FF FF EC F7 FF FF
  can1  142   [1]  00
  can1  132   [8]  E8 03 E8 03 E8 03 E8 03
  can1  301   [8]  AF A2 05 00 89 01 00 00
  can1  303   [4]  B6 00 77 00
  can1  132   [8]  E8 03 E8 03 E8 03 E8 03
  can1  142   [1]  00
  can1  132   [8]  E8 03 E8 03 E8 03 E8 03
  can1  104   [5]  01 00 00 00 00
  can1  142   [1]  00
  can1  102   [5]  01 00 00 00 00
  can1  132   [8]  00 00 00 00 00 00 00 00
  can1  132   [8]  E8 03 E8 03 E8 03 E8 03
  can1  106   [5]  01 00 00 00 00
  can1  152   [8]  F9 FF 00 00 00 00 01 00
  can1  105   [5]  01 00 00 00 00
  can1  132   [8]  E8 03 E8 03 E8 03 E8 03
  can1  100   [5]  01 00 00 00 01
  can1  110   [4]  02 00 00 00
  can1  130   [1]  01
  can1  142   [1]  00
  can1  132   [8]  E8 03 E8 03 E8 03 E8 03
  can1  142   [1]  00
  can1  142   [1]  00
  can1  162   [6]  37 FA 80 FD 26 40
  can1  132   [8]  E8 03 E8 03 E8 03 E8 03
  can1  142   [1]  00
  can1  132   [8]  E8 03 E8 03 E8 03 E8 03
  can1  142   [1]  00
  can1  132   [8]  E8 03 E8 03 E8 03 E8 03
  can1  142   [1]  00
  can1  107   [5]  01 00 00 00 00
  can1  103   [5]  01 00 00 04 00
  can1  133   [6]  00 00 19 4F 8D 0C
  can1  132   [8]  E8 03 E8 03 E8 03 E8 03
  can1  101   [6]  00 00 01 02 00 DD
  can1  142   [1]  00
  can1  302   [8]  87 F7 FF FF EB F7 FF FF
  can1  132   [8]  E8 03 E8 03 E8 03 E8 03
  can1  301   [8]  74 A3 05 00 12 03 00 00
  can1  142   [1]  00
  can1  303   [4]  B6 00 74 00
  can1  132   [8]  E8 03 E8 03 E8 03 E8 03
  can1  142   [1]  00
  can1  132   [8]  E8 03 E8 03 E8 03 E8 03
  can1  104   [5]  01 00 00 00 00
  can1  142   [1]  00
  can1  102   [5]  01 00 00 00 00
  can1  132   [8]  E8 03 E8 03 E8 03 E8 03
  can1  132   [8]  00 00 00 00 00 00 00 00
  can1  152   [8]  F7 FF 00 00 00 00 00 00
  can1  106   [5]  01 00 00 00 00
  can1  105   [5]  01 00 00 00 00
  can1  132   [8]  E8 03 E8 03 E8 03 E8 03
  can1  142   [1]  00
  can1  100   [5]  01 00 00 00 01
  can1  110   [4]  02 00 00 00
  can1  130   [1]  01
  can1  132   [8]  E8 03 E8 03 E8 03 E8 03
  can1  162   [6]  6F FA 64 FD 7A 40
  can1  200   [6]  06 00 12 00 00 00
  can1  142   [1]  00
  can1  132   [8]  E8 03 E8 03 E8 03 E8 03
  can1  142   [1]  00
  can1  530   [4]  C0 5A 52 00
  can1  132   [8]  E8 03 E8 03 E8 03 E8 03
  can1  142   [1]  00
  can1  142   [1]  00
  can1  132   [8]  E8 03 E8 03 E8 03 E8 03
  can1  142   [1]  00
  can1  107   [5]  01 00 00 00 00
  can1  132   [8]  E8 03 E8 03 E8 03 E8 03
  can1  103   [5]  01 00 00 04 00
  can1  133   [6]  00 00 1A 50 AF 0C
  can1  533   [6]  7C 01 EC 00 E5 0C
  can1  101   [6]  00 00 01 02 00 DD
  can1  132   [8]  E8 03 E8 03 E8 03 E8 03
  can1  142   [1]  00
  can1  302   [8]  87 F7 FF FF EA F7 FF FF
  can1  301   [8]  74 A3 05 00 89 01 00 00
  can1  132   [8]  E8 03 E8 03 E8 03 E8 03
  can1  142   [1]  00
  can1  303   [4]  B6 00 5E 00
  can1  543   [4]  A1 01 AF 0C
  can1  553   [4]  A5 5A 18 00
  can1  142   [1]  00
  can1  132   [8]  E8 03 E8 03 E8 03 E8 03
  can1  104   [5]  01 00 00 00 00
  can1  132   [8]  E8 03 E8 03 E8 03 E8 03
  can1  142   [1]  00
  can1  102   [5]  01 00 00 00 00
  can1  132   [8]  00 00 00 00 00 00 00 00
  can1  132   [8]  E8 03 E8 03 E8 03 E8 03
  can1  106   [5]  01 00 00 00 00
  can1  152   [8]  03 00 00 00 00 00 03 00
  can1  105   [5]  01 00 00 00 00
  can1  132   [8]  E8 03 E8 03 E8 03 E8 03
  can1  100   [5]  01 00 00 00 01
  can1  110   [4]  02 00 00 00
  can1  130   [1]  01
  can1  142   [1]  00
  can1  142   [1]  00
  can1  162   [6]  35 FA 50 FD 4F 40
  can1  132   [8]  E8 03 E8 03 E8 03 E8 03
  can1  142   [1]  00
  can1  132   [8]  E8 03 E8 03 E8 03 E8 03
  can1  142   [1]  00
  can1  132   [8]  E8 03 E8 03 E8 03 E8 03
  can1  142   [1]  00
  can1  132   [8]  E8 03 E8 03 E8 03 E8 03
  can1  142   [1]  00
  can1  107   [5]  01 00 00 00 00
  can1  103   [5]  01 00 00 04 00
  can1  133   [6]  00 00 15 47 BF 09
  can1  132   [8]  E8 03 E8 03 E8 03 E8 03
  can1  142   [1]  00
  can1  132   [8]  E8 03 E8 03 E8 03 E8 03
  can1  142   [1]  00
  can1  132   [8]  E8 03 E8 03 E8 03 E8 03
  can1  142   [1]  00
  can1  132   [8]  E8 03 E8 03 E8 03 E8 03
  can1  104   [5]  01 00 00 00 00
  can1  142   [1]  00
  can1  102   [5]  01 00 00 00 00
  can1  132   [8]  E8 03 E8 03 E8 03 E8 03
  can1  132   [8]  00 00 00 00 00 00 00 00
  can1  106   [5]  01 00 00 00 00
  can1  142   [1]  00
  can1  132   [8]  E8 03 E8 03 E8 03 E8 03
  can1  105   [5]  01 00 00 00 00
  can1  152   [8]  06 00 00 00 00 00 00 00
  can1  100   [5]  01 00 00 00 01
  can1  110   [4]  02 00 00 00
  can1  101   [6]  00 00 01 02 00 DD
  can1  130   [1]  01
  can1  132   [8]  E8 03 E8 03 E8 03 E8 03
  can1  162   [6]  21 FA 54 FD 43 40
  can1  132   [8]  E8 03 E8 03 E8 03 E8 03
  can1  142   [1]  00
  can1  380   [6]  06 00 16 0F 13 0F
  can1  142   [1]  00
  can1  302   [8]  87 F7 FF FF EA F7 FF FF
  can1  132   [8]  E8 03 E8 03 E8 03 E8 03
  can1  142   [1]  00
  can1  38C   [6]  01 03 07 0F AA 0D
  can1  301   [8]  38 A4 05 00 C4 00 00 00
  can1  303   [4]  B6 00 6E 00
  can1  310   [8]  03 0F 16 0F 01 02 00 06
  can1  132   [8]  E8 03 E8 03 E8 03 E8 03
  can1  142   [1]  00
  can1  311   [8]  F2 00 F2 00 07 07 00 02
  can1  528   [7]  00 00 00 00 00 00 00
  can1  142   [1]  00
  can1  132   [8]  E8 03 E8 03 E8 03 E8 03
  can1  107   [5]  01 00 00 00 00
  can1  103   [5]  01 00 00 00 00
  can1  133   [6]  00 00 1B 60 FF 09
  can1  132   [8]  E8 03 E8 03 E8 03 E8 03
  can1  142   [1]  00
  can1  382   [6]  0A 02 09 0F 03 0F
  can1  384   [6]  02 01 08 0F 05 0F
  can1  386   [6]  01 00 0C 0F 09 0F
  can1  132   [8]  E8 03 E8 03 E8 03 E8 03
  can1  142   [1]  00
  can1  388   [6]  01 08 11 0F F1 0E
  can1  38A   [6]  01 04 0A 0F 07 0F
  can1  38E   [6]  05 00 19 0F 15 0F
  can1  132   [8]  E8 03 E8 03 E8 03 E8 03
  can1  142   [1]  00
  can1  132   [8]  E8 03 E8 03 E8 03 E8 03
  can1  104   [5]  01 00 00 00 00
  can1  142   [1]  00
  can1  102   [5]  01 00 00 00 00
  can1  132   [8]  00 00 00 00 00 00 00 00
  can1  132   [8]  E8 03 E8 03 E8 03 E8 03
  can1  106   [5]  01 00 00 00 00
  can1  152   [8]  FD FF 00 00 00 00 00 00
  can1  105   [5]  01 00 00 00 00
  can1  132   [8]  E8 03 E8 03 E8 03 E8 03
  can1  142   [1]  00
  can1  100   [5]  01 00 00 00 01
  can1  110   [4]  02 00 00 00
  can1  130   [1]  01
  can1  132   [8]  E8 03 E8 03 E8 03 E8 03
  can1  142   [1]  00
  can1  142   [1]  00
  can1  162   [6]  48 FA 2C FD 8E 40
  can1  101   [6]  00 00 01 02 00 DD
  can1  132   [8]  E8 03 E8 03 E8 03 E8 03
  can1  302   [8]  87 F7 FF FF EA F7 FF FF
  can1  142   [1]  00
  can1  301   [8]  38 A4 05 00 89 01 00 00
  can1  132   [8]  E8 03 E8 03 E8 03 E8 03
  can1  303   [4]  B6 00 61 00
  can1  142   [1]  00
  can1  132   [8]  E8 03 E8 03 E8 03 E8 03
  can1  142   [1]  00
  can1  107   [5]  01 00 00 00 00
  can1  103   [5]  01 00 00 00 00
  can1  132   [8]  E8 03 E8 03 E8 03 E8 03
  can1  133   [6]  00 00 19 37 E8 0F
  can1  142   [1]  00
  can1  132   [8]  E8 03 E8 03 E8 03 E8 03
  can1  142   [1]  00
  can1  132   [8]  E8 03 E8 03 E8 03 E8 03
  can1  142   [1]  00
  can1  132   [8]  E8 03 E8 03 E8 03 E8 03
  can1  104   [5]  01 00 00 00 00
  can1  142   [1]  00
  can1  102   [5]  01 00 00 00 00
  can1  132   [8]  00 00 00 00 00 00 00 00
  can1  132   [8]  E8 03 E8 03 E8 03 E8 03
  can1  152   [8]  FF FF 00 00 00 00 01 00
  can1  106   [5]  01 00 00 00 00
  can1  105   [5]  01 00 00 00 00
  can1  132   [8]  E8 03 E8 03 E8 03 E8 03
  can1  142   [1]  00
  can1  100   [5]  01 00 00 00 01
  can1  110   [4]  02 00 00 00
  can1  130   [1]  01
  can1  132   [8]  E8 03 E8 03 E8 03 E8 03
  can1  162   [6]  27 FA 5C FD 45 40
  can1  142   [1]  00
  can1  142   [1]  00
  can1  132   [8]  E8 03 E8 03 E8 03 E8 03
  can1  101   [6]  00 00 01 02 00 DD
  can1  302   [8]  87 F7 FF FF EA F7 FF FF
  can1  301   [8]  38 A4 05 00 89 01 00 00
  can1  132   [8]  E8 03 E8 03 E8 03 E8 03
  can1  142   [1]  00
  can1  303   [4]  B6 00 61 00
  can1  142   [1]  00
  can1  132   [8]  E8 03 E8 03 E8 03 E8 03
  can1  132   [8]  E8 03 E8 03 E8 03 E8 03
  can1  107   [5]  01 00 00 00 00
  can1  142   [1]  00
  can1  103   [5]  01 00 00 00 00
  can1  133   [6]  00 00 1A 50 E4 0C
  can1  132   [8]  E8 03 E8 03 E8 03 E8 03
  can1  142   [1]  00
  can1  132   [8]  E8 03 E8 03 E8 03 E8 03
  can1  142   [1]  00
  can1  132   [8]  E8 03 E8 03 E8 03 E8 03
  can1  142   [1]  00
  can1  132   [8]  E8 03 E8 03 E8 03 E8 03
  can1  104   [5]  01 00 00 00 00
  can1  142   [1]  00
  can1  102   [5]  01 00 00 00 00
  can1  132   [8]  00 00 00 00 00 00 00 00
  can1  132   [8]  E8 03 E8 03 E8 03 E8 03
  can1  152   [8]  00 00 00 00 00 00 01 00
  can1  106   [5]  01 00 00 00 00
  can1  132   [8]  E8 03 E8 03 E8 03 E8 03
  can1  105   [5]  01 00 00 00 00
  can1  142   [1]  00
  can1  100   [5]  01 00 00 00 01
  can1  110   [4]  02 00 00 00
  can1  130   [1]  01
  can1  132   [8]  E8 03 E8 03 E8 03 E8 03
  can1  162   [6]  2E FA 48 FD 65 40
  can1  142   [1]  00
  can1  142   [1]  00
  can1  132   [8]  E8 03 E8 03 E8 03 E8 03
  can1  101   [6]  00 00 01 02 00 DD
  can1  302   [8]  87 F7 FF FF EA F7 FF FF
  can1  301   [8]  74 A3 05 00 4E 02 00 00
  can1  132   [8]  E8 03 E8 03 E8 03 E8 03
  can1  142   [1]  00
  can1  303   [4]  B6 00 69 00
  can1  132   [8]  E8 03 E8 03 E8 03 E8 03
  can1  142   [1]  00
  can1  132   [8]  E8 03 E8 03 E8 03 E8 03
  can1  142   [1]  00
  can1  107   [5]  01 00 00 00 00
  can1  103   [5]  01 00 00 00 00
  can1  133   [6]  00 00 1A 50 E5 0C
  can1  142   [1]  00
  can1  132   [8]  E8 03 E8 03 E8 03 E8 03
  can1  142   [1]  00
  can1  132   [8]  E8 03 E8 03 E8 03 E8 03
  can1  142   [1]  00
  can1  132   [8]  E8 03 E8 03 E8 03 E8 03
  can1  104   [5]  01 00 00 00 00
  can1  132   [8]  E8 03 E8 03 E8 03 E8 03
  can1  142   [1]  00
  can1  102   [5]  01 00 00 00 00
  can1  132   [8]  00 00 00 00 00 00 00 00
  can1  152   [8]  05 00 00 00 00 00 01 00
  can1  106   [5]  01 00 00 00 00
  can1  105   [5]  01 00 00 00 00
  can1  132   [8]  E8 03 E8 03 E8 03 E8 03
  can1  142   [1]  00
  can1  100   [5]  01 00 00 00 01
  can1  110   [4]  02 00 00 00
  can1  130   [1]  01
  can1  132   [8]  E8 03 E8 03 E8 03 E8 03
  can1  162   [6]  61 FA 58 FD A5 40
  can1  142   [1]  00
  can1  132   [8]  E8 03 E8 03 E8 03 E8 03
  can1  142   [1]  00
  can1  101   [6]  00 00 01 02 00 DD
  can1  302   [8]  79 F8 FF FF EC F7 FF FF
  can1  132   [8]  E8 03 E8 03 E8 03 E8 03
  can1  142   [1]  00
  can1  301   [8]  38 A4 05 00 89 01 00 00
  can1  303   [4]  B6 00 6B 00
  can1  132   [8]  E8 03 E8 03 E8 03 E8 03
  can1  142   [1]  00
  can1  132   [8]  E8 03 E8 03 E8 03 E8 03
  can1  142   [1]  00
  can1  107   [5]  01 00 00 00 00
  can1  103   [5]  01 00 00 04 00
  can1  132   [8]  E8 03 E8 03 E8 03 E8 03
  can1  133   [6]  00 00 18 4C 21 0C
  can1  142   [1]  00
  can1  132   [8]  E8 03 E8 03 E8 03 E8 03
  can1  142   [1]  00
  can1  132   [8]  E8 03 E8 03 E8 03 E8 03
  can1  142   [1]  00
  can1  132   [8]  E8 03 E8 03 E8 03 E8 03
